# ghz S RI R 50.0
1 0.00336707543402 0.00470005923562 0.812910702665 -0.58106236991 0.812910702665 -0.58106236991 0.00336707543402 0.00470005923562
1.0425 0.0036171220835 0.00477828409935 0.797302493979 -0.60229606486 0.797302493979 -0.60229606486 0.0036171220835 0.00477828409935
1.085 0.00387094387963 0.00484321634961 0.781139826413 -0.623110647621 0.781139826413 -0.623110647621 0.00387094387963 0.00484321634961
1.1275 0.00412783469966 0.00489467554055 0.764433953362 -0.643491646414 0.764433953362 -0.643491646414 0.00412783469966 0.00489467554055
1.17 0.00438707989828 0.00493251870993 0.747196505635 -0.66342489185 0.747196505635 -0.66342489185 0.00438707989828 0.00493251870993
1.2125 0.0046479582961 0.00495664077549 0.729439483303 -0.68289652676 0.729439483303 -0.68289652676 0.0046479582961 0.00495664077549
1.255 0.00490974418608 0.00496697482579 0.711175247295 -0.701893015784 0.711175247295 -0.701893015784 0.00490974418608 0.00496697482579
1.2975 0.00517170935245 0.00496349230504 0.692416510747 -0.720401154755 0.692416510747 -0.720401154755 0.00517170935245 0.00496349230504
1.34 0.00543312509649 0.00494620309103 0.673176330102 -0.738408079827 0.673176330102 -0.738408079827 0.00543312509649 0.00494620309103
1.3825 0.00569326426352 0.00491515546622 0.653468095988 -0.755901276381 0.653468095988 -0.755901276381 0.00569326426352 0.00491515546622
1.425 0.00595140326538 0.00487043598208 0.633305523854 -0.772868587667 0.633305523854 -0.772868587667 0.00595140326538 0.00487043598208
1.4675 0.00620682409296 0.00481216921688 0.612702644397 -0.789298223211 0.612702644397 -0.789298223211 0.00620682409296 0.00481216921688
1.51 0.006458816313 0.00474051742781 0.59167379376 -0.80517876695 0.59167379376 -0.80517876695 0.006458816313 0.00474051742781
1.5525 0.00670667904373 0.00465568009834 0.570233603537 -0.820499185112 0.570233603537 -0.820499185112 0.00670667904373 0.00465568009834
1.595 0.00694972290381 0.00455789338207 0.548396990567 -0.835248833826 0.548396990567 -0.835248833826 0.00694972290381 0.00455789338207
1.6375 0.0071872719291 0.00444742944465 0.526179146542 -0.84941746646 0.526179146542 -0.84941746646 0.0071872719291 0.00444742944465
1.68 0.00741866545214 0.00432459570565 0.50359552742 -0.862995240678 0.50359552742 -0.862995240678 0.00741866545214 0.00432459570565
1.7225 0.00764325993885 0.00418973398242 0.48066184267 -0.875972725217 0.48066184267 -0.875972725217 0.00764325993885 0.00418973398242
1.765 0.00786043077753 0.00404321953841 0.457394044339 -0.888340906383 0.457394044339 -0.888340906383 0.00786043077753 0.00404321953841
1.8075 0.00806957401516 0.00388546003849 0.433808315959 -0.900091194242 0.433808315959 -0.900091194242 0.00806957401516 0.00388546003849
1.85 0.00827010803619 0.00371689441439 0.409921061295 -0.911215428535 0.409921061295 -0.911215428535 0.00827010803619 0.00371689441439
1.8925 0.00846147517906 0.00353799164319 0.385748892949 -0.92170588428 0.385748892949 -0.92170588428 0.00846147517906 0.00353799164319
1.935 0.00864314328616 0.00334924944237 0.361308620822 -0.931555277081 0.361308620822 -0.931555277081 0.00864314328616 0.00334924944237
1.9775 0.00881460718271 0.00315119288511 0.336617240443 -0.940756768125 0.336617240443 -0.940756768125 0.00881460718271 0.00315119288511
2.02 0.00897539008069 0.00294437293959 0.31169192118 -0.949303968882 0.31169192118 -0.949303968882 0.00897539008069 0.00294437293959
2.0625 0.0091250449037 0.00272936493637 0.286549994322 -0.957190945482 0.286549994322 -0.957190945482 0.0091250449037 0.00272936493637
2.105 0.00926315552927 0.00250676696817 0.261208941068 -0.964412222785 0.261208941068 -0.964412222786 0.00926315552927 0.00250676696817
2.1475 0.00938933794503 0.00227719822646 0.235686380408 -0.970962788139 0.235686380408 -0.970962788139 0.00938933794503 0.00227719822646
2.19 0.0095032413157 0.0020412972795 0.210000056912 -0.976838094806 0.210000056912 -0.976838094806 0.0095032413157 0.0020412972795
2.2325 0.00960454895771 0.00179972029653 0.184167828435 -0.982034065085 0.184167828435 -0.982034065085 0.00960454895771 0.00179972029653
2.275 0.00969297921902 0.00155313922323 0.158207653756 -0.986547093099 0.158207653756 -0.986547093099 0.00969297921902 0.00155313922323
2.3175 0.0097682862615 0.00130223991327 0.132137580135 -0.990374047265 0.132137580135 -0.990374047265 0.0097682862615 0.00130223991327
2.36 0.00983026074379 0.00104772022139 0.105975730825 -0.993512272439 0.105975730825 -0.993512272439 0.00983026074379 0.00104772022139
2.4025 0.00987873040276 0.000790288063086 0.0797402925255 -0.99595959173 0.0797402925255 -0.99595959173 0.00987873040276 0.000790288063086
2.445 0.00991356053188 0.000530659446463 0.0534495027948 -0.997714307991 0.0534495027948 -0.997714307991 0.00991356053188 0.000530659446463
2.4875 0.00993465435529 0.000269556481584 0.0271216374338 -0.998775204976 0.0271216374338 -0.998775204976 0.00993465435529 0.000269556481584
2.53 0.00994195329648 7.70537292467e-06 0.000774997838324 -0.999141548176 0.000774997838326 -0.999141548176 0.00994195329648 7.70537292384e-06
2.5725 0.00993543714075 -0.000254165599526 -0.0255721016617 -0.998813085316 -0.0255721016617 -0.998813085316 0.00993543714075 -0.000254165599526
2.615 0.0099151240912 -0.000515328104915 -0.0519013464734 -0.997790046527 -0.0519013464734 -0.997790046527 0.0099151240912 -0.000515328104915
2.6575 0.00988107071789 -0.000775055786305 -0.0781944344111 -0.99607314419 -0.0781944344111 -0.99607314419 0.00988107071789 -0.000775055786305
2.7 0.00983337180045 -0.00103262627996 -0.104433088359 -0.993663572443 -0.104433088359 -0.993663572443 0.00983337180045 -0.00103262627996
2.7425 0.00977216006454 -0.00128732322354 -0.130599068916 -0.990563006363 -0.130599068916 -0.990563006363 0.00977216006454 -0.00128732322354
2.785 0.00969760581279 -0.00153843824764 -0.156674187019 -0.986773600821 -0.156674187019 -0.986773600821 0.00969760581279 -0.00153843824764
2.8275 0.00960991645146 -0.00178527294509 -0.182640316527 -0.982297989003 -0.182640316527 -0.982297989003 0.00960991645146 -0.00178527294509
2.87 0.0095093359139 -0.00202714081267 -0.208479406768 -0.977139280604 -0.208479406768 -0.977139280604 0.0095093359139 -0.00202714081267
2.9125 0.00939614398255 -0.00226336915972 -0.234173495035 -0.971301059699 -0.234173495035 -0.971301059699 0.00939614398255 -0.00226336915972
2.955 0.00927065551134 -0.00249330097838 -0.259704719023 -0.964787382289 -0.259704719023 -0.964787382289 0.00927065551134 -0.00249330097838
2.9975 0.00913321955057 -0.00271629677038 -0.285055329199 -0.957602773513 -0.285055329199 -0.957602773513 0.00913321955057 -0.00271629677038
3.04 0.00898421837675 -0.00293173632512 -0.310207701097 -0.949752224556 -0.310207701097 -0.949752224556 0.00898421837675 -0.00293173632512
3.0825 0.00882406643017 -0.00313902044424 -0.335144347532 -0.941241189216 -0.335144347532 -0.941241189216 0.00882406643017 -0.00313902044424
3.125 0.00865320916294 -0.00333757260788 -0.359847930718 -0.932075580169 -0.359847930718 -0.932075580169 0.00865320916294 -0.00333757260788
3.1675 0.00847212180089 -0.00352684057785 -0.384301274292 -0.922261764911 -0.384301274292 -0.922261764911 0.00847212180089 -0.00352684057785
3.21 0.00828130802263 -0.00370629793356 -0.408487375226 -0.911806561386 -0.408487375226 -0.911806561386 0.00828130802263 -0.00370629793356
3.2525 0.00808129855955 -0.00387544553602 -0.432389415623 -0.900717233303 -0.432389415623 -0.900717233303 0.00808129855955 -0.00387544553602
3.295 0.0078726497205 -0.00403381291631 -0.455990774396 -0.88900148515 -0.455990774396 -0.889001485151 0.0078726497205 -0.00403381291631
3.3375 0.00765594184539 -0.00418095958418 -0.479275038805 -0.876667456899 -0.479275038805 -0.876667456899 0.00765594184539 -0.00418095958418
3.38 0.00743177769184 -0.0043164762536 -0.502226015861 -0.863723718404 -0.502226015861 -0.863723718404 0.00743177769184 -0.0043164762536
3.4225 0.00720078075953 -0.00443998598143 -0.524827743581 -0.850179263514 -0.524827743581 -0.850179263514 0.00720078075953 -0.00443998598143
3.465 0.00696359355674 -0.00455114521636 -0.547064502089 -0.836043503881 -0.547064502089 -0.836043503881 0.00696359355674 -0.00455114521636
3.5075 0.00672087581401 -0.00464964475501 -0.568920824549 -0.82132626248 -0.568920824549 -0.82132626248 0.00672087581401 -0.00464964475501
3.55 0.0064733026498 -0.00473521060259 -0.590381507933 -0.806037766843 -0.590381507933 -0.806037766843 0.0064733026498 -0.00473521060259
3.5925 0.00622156269326 -0.00480760473572 -0.611431623608 -0.790188642011 -0.611431623608 -0.790188642011 0.00622156269326 -0.00480760473572
3.635 0.00596635616937 -0.00486662576527 -0.632056527739 -0.773789903208 -0.632056527739 -0.773789903208 0.00596635616937 -0.00486662576527
3.6775 0.00570839295172 -0.00491210949733 -0.652241871496 -0.756852948241 -0.652241871496 -0.756852948241 0.00570839295172 -0.00491210949733
3.72 0.0054483905883 -0.0049439293908 -0.671973611061 -0.739389549635 -0.671973611061 -0.739389549635 0.00544839058831 -0.0049439293908
3.7625 0.00518707230597 -0.00496199691033 -0.691238017433 -0.721411846499 -0.691238017433 -0.721411846499 0.00518707230597 -0.00496199691032
3.805 0.00492516499884 -0.00496626177347 -0.710021686014 -0.70293233614 -0.710021686014 -0.70293233614 0.00492516499884 -0.00496626177347
3.8475 0.00466339720649 -0.00495671209155 -0.728311545971 -0.683963865421 -0.728311545971 -0.683963865421 0.00466339720649 -0.00495671209155
3.89 0.00440249708744 -0.00493337440369 -0.746094869375 -0.664519621874 -0.746094869375 -0.664519621874 0.00440249708744 -0.00493337440369
3.9325 0.00414319039354 -0.00489631360396 -0.763359280107 -0.644613124575 -0.763359280107 -0.644613124575 0.00414319039354 -0.00489631360396
3.975 0.003886198451 -0.00484563276181 -0.780092762511 -0.624258214775 -0.780092762511 -0.624258214775 0.003886198451 -0.00484563276181
4.0175 0.0036322361536 -0.00478147283628 -0.796283669816 -0.603469046313 -0.796283669816 -0.603469046313 0.0036322361536 -0.00478147283628
4.06 0.0033820099736 -0.00470401228479 -0.811920732288 -0.582260075803 -0.811920732288 -0.582260075803 0.0033820099736 -0.00470401228479
4.1025 0.00313621599616 -0.00461346656758 -0.826993065137 -0.560646052603 -0.826993065137 -0.560646052603 0.00313621599616 -0.00461346656758
4.145 0.00289553798234 -0.0045100875491 -0.841490176144 -0.53864200858 -0.841490176144 -0.53864200858 0.00289553798234 -0.0045100875491
4.1875 0.00266064546646 -0.00439416279813 -0.855401973027 -0.516263247668 -0.855401973027 -0.516263247668 0.00266064546646 -0.00439416279813
4.23 0.0024321918929 -0.00426601478847 -0.868718770527 -0.493525335238 -0.868718770527 -0.493525335238 0.0024321918929 -0.00426601478847
4.2725 0.00221081279753 -0.00412600000242 -0.881431297208 -0.470444087276 -0.881431297208 -0.470444087276 0.00221081279753 -0.00412600000242
4.315 0.00199712403896 -0.00397450793962 -0.893530701975 -0.447035559382 -0.893530701975 -0.447035559382 0.00199712403896 -0.00397450793962
4.3575 0.00179172008449 -0.0038119600339 -0.905008560295 -0.423316035601 -0.905008560295 -0.423316035601 0.00179172008449 -0.0038119600339
4.4 0.00159517235545 -0.00363880848116 -0.915856880123 -0.399302017083 -0.915856880123 -0.399302017083 0.00159517235545 -0.00363880848116
4.4425 0.00140802763669 -0.00345553498165 -0.926068107527 -0.375010210591 -0.926068107527 -0.375010210591 0.00140802763669 -0.00345553498165
4.485 0.00123080655458 -0.0032626494 -0.935635132006 -0.350457516863 -0.935635132006 -0.350457516863 0.00123080655458 -0.00326264939999
4.5275 0.0010640021277 -0.00306068834677 -0.944551291494 -0.325661018829 -0.944551291494 -0.325661018829 0.0010640021277 -0.00306068834677
4.57 0.000908078394442 -0.00285021368557 -0.952810377057 -0.300637969698 -0.952810377057 -0.300637969698 0.000908078394442 -0.00285021368557
4.6125 0.000763469121206 -0.00263181096971 -0.960406637267 -0.275405780926 -0.960406637267 -0.275405780926 0.000763469121206 -0.00263181096971
4.655 0.000630576594808 -0.00240608781294 -0.967334782259 -0.249982010061 -0.967334782259 -0.249982010061 0.000630576594808 -0.00240608781294
4.6975 0.000509770502557 -0.00217367219863 -0.973589987457 -0.224384348491 -0.973589987457 -0.224384348491 0.000509770502557 -0.00217367219863
4.74 0.000401386903045 -0.00193521073223 -0.97916789698 -0.19863060909 -0.97916789698 -0.19863060909 0.000401386903045 -0.00193521073223
4.7825 0.000305727290567 -0.00169136684187 -0.984064626714 -0.172738713776 -0.984064626714 -0.172738713776 0.000305727290567 -0.00169136684187
4.825 0.000223057755764 -0.00144281893196 -0.988276767052 -0.146726680993 -0.988276767052 -0.146726680993 0.000223057755763 -0.00144281893197
4.8675 0.000153608244841 -0.0011902584952 -0.991801385304 -0.120612613118 -0.991801385304 -0.120612613118 0.00015360824484 -0.0011902584952
4.91 9.75719194353e-05 -0.000934388187958 -0.994636027761 -0.0944146838114 -0.994636027761 -0.0944146838114 9.75719194354e-05 -0.000934388187958
4.9525 5.51046189093e-05 -0.000675919874691 -0.996778721431 -0.0681511253123 -0.996778721431 -0.0681511253123 5.51046189096e-05 -0.000675919874691
4.995 2.63244265769e-05 -0.000415572646575 -0.998227975431 -0.0418402156941 -0.998227975431 -0.0418402156941 2.6324426577e-05 -0.000415572646575
5.0375 1.13113410796e-05 -0.000154070820075 -0.998982782037 -0.0155002660847 -0.998982782037 -0.0155002660847 1.13113410796e-05 -0.000154070820075
5.08 1.01070538213e-05 0.000107858079074 -0.999042617397 0.0108503921371 -0.999042617397 0.0108503921371 1.01070538214e-05 0.000107858079074
5.1225 2.27148330904e-05 0.000369485340811 -0.998407441899 0.037193420159 -0.998407441899 0.037193420159 2.27148330901e-05 0.000369485340811
5.165 4.9099515184e-05 0.000630083098989 -0.997077700195 0.0635104845591 -0.997077700195 0.0635104845591 4.9099515184e-05 0.000630083098989
5.2075 8.9187602572e-05 0.000888926357244 -0.99505432089 0.0897832701249 -0.99505432089 0.0897832701249 8.91876025717e-05 0.000888926357244
5.25 0.000142867468809 0.00114529500686 -0.992338715881 0.115993492659 -0.992338715881 0.115993492659 0.000142867468809 0.00114529500686
5.2925 0.000209989669635 0.00139847583096 -0.988932779358 0.142122911765 -0.988932779358 0.142122911765 0.000209989669635 0.00139847583096
5.335 0.000290367359389 0.00164776448956 -0.984838886466 0.168153343594 -0.984838886466 0.168153343594 0.000290367359389 0.00164776448956
5.3775 0.000383776811566 0.00189246747973 -0.980059891627 0.194066673561 -0.980059891627 0.194066673561 0.000383776811566 0.00189246747973
5.42 0.000489958042077 0.00213190406562 -0.974599126518 0.219844868999 -0.974599126518 0.219844868999 0.000489958042077 0.00213190406562
5.4625 0.000608615533452 0.0023654081729 -0.96846039772 0.245469991764 -0.96846039772 0.245469991764 0.000608615533452 0.0023654081729
5.505 0.000739419057974 0.0025923302422 -0.96164798403 0.270924210764 -0.96164798403 0.270924210764 0.000739419057974 0.0025923302422
5.5475 0.000882004597439 0.00281203903667 -0.954166633436 0.296189814412 -0.954166633436 0.296189814412 0.00088200459744 0.00281203903667
5.59 0.00103597535698 0.00302392339827 -0.946021559769 0.321249222996 -0.946021559769 0.321249222996 0.00103597535698 0.00302392339827
5.6325 0.00120090287011 0.00322739394824 -0.937218439022 0.346085000945 -0.937218439022 0.346085000945 0.00120090287011 0.00322739394824
5.675 0.00137632819189 0.00342188472679 -0.927763405343 0.370679869002 -0.927763405343 0.370679869002 0.00137632819189 0.00342188472679
5.7175 0.00156176317695 0.00360685476751 -0.917663046714 0.395016716272 -0.917663046714 0.395016716272 0.00156176317695 0.00360685476751
5.76 0.00175669183866 0.0037817896021 -0.906924400304 0.419078612155 -0.906924400304 0.419078612155 0.00175669183866 0.0037817896021
5.8025 0.00196057178589 0.00394620269136 -0.89555494751 0.44284881815 -0.89555494751 0.44284881815 0.00196057178589 0.00394620269136
5.845 0.00217283573301 0.00409963677824 -0.883562608689 0.466310799513 -0.883562608689 0.466310799513 0.00217283573301 0.00409963677824
5.8875 0.00239289307929 0.00424166515934 -0.870955737578 0.489448236777 -0.870955737578 0.489448236777 0.00239289307929 0.00424166515934
5.93 0.00262013155299 0.00437189287132 -0.857743115421 0.512245037109 -0.857743115421 0.512245037109 0.00262013155299 0.00437189287132
5.9725 0.00285391891576 0.00448995778888 -0.843933944789 0.53468534551 -0.843933944789 0.53468534551 0.00285391891576 0.00448995778888
6.015 0.00309360472242 0.00459553163125 -0.829537843106 0.55675355584 -0.829537843106 0.55675355584 0.00309360472242 0.00459553163125
6.0575 0.0033385221314 0.00468832087444 -0.814564835901 0.578434321667 -0.814564835901 0.578434321667 0.0033385221314 0.00468832087444
6.1 0.00358798976064 0.00476806756672 -0.799025349754 0.599712566929 -0.799025349754 0.599712566929 0.00358798976064 0.00476806756672
6.1425 0.00384131358387 0.00483455004508 -0.782930204989 0.620573496405 -0.782930204989 0.620573496405 0.00384131358387 0.00483455004507
6.185 0.00409778886189 0.00488758355053 -0.766290608074 0.641002605978 -0.766290608074 0.641002605978 0.00409778886189 0.00488758355054
6.2275 0.0043567021036 0.00492702074092 -0.749118143764 0.660985692701 -0.749118143764 0.660985692701 0.00435670210361 0.00492702074091
6.27 0.00461733305126 0.0049527520993 -0.731424766985 0.680508864643 -0.731424766985 0.680508864643 0.00461733305126 0.0049527520993
6.3125 0.00487895668432 0.00496470623735 -0.713222794459 0.699558550509 -0.713222794459 0.699558550509 0.00487895668433 0.00496470623735
6.355 0.00514084523654 0.00496285009243 -0.69452489608 0.718121509047 -0.69452489608 0.718121509047 0.00514084523654 0.00496285009243
6.3975 0.00540227022047 0.00494718901823 -0.67534408605 0.736184838203 -0.67534408605 0.736184838203 0.00540227022047 0.00494718901823
6.44 0.00566250445385 0.00491776676834 -0.655693713781 0.753735984051 -0.655693713781 0.753735984051 0.00566250445385 0.00491776676834
6.4825 0.00592082408226 0.00487466537323 -0.635587454561 0.77076274947 -0.635587454561 0.77076274947 0.00592082408226 0.00487466537323
6.525 0.00617651059234 0.00481800491057 -0.615039300006 0.787253302571 -0.615039300006 0.787253302571 0.00617651059234 0.00481800491057
6.5675 0.00642885281005 0.00474794316995 -0.594063548291 0.803196184867 -0.594063548291 0.803196184867 0.00642885281005 0.00474794316995
6.61 0.00667714887834 0.00466467521256 -0.572674794173 0.818580319181 -0.572674794173 0.818580319181 0.00667714887834 0.00466467521256
6.6525 0.00692070820885 0.0045684328274 -0.550887918816 0.833395017286 -0.550887918816 0.833395017286 0.00692070820885 0.0045684328274
6.695 0.00715885340208 0.00445948388534 -0.528718079419 0.847629987272 -0.528718079419 0.847629987272 0.00715885340208 0.00445948388534
6.7375 0.0073909221308 0.00433813159286 -0.506180698657 0.861275340641 -0.506180698657 0.861275340641 0.0073909221308 0.00433813159286
6.78 0.00761626898144 0.00420471364769 -0.483291453944 0.874321599112 -0.483291453944 0.874321599112 0.00761626898144 0.00420471364769
6.8225 0.00783426724832 0.00405960129851 -0.460066266523 0.886759701146 -0.460066266523 0.886759701146 0.00783426724832 0.00405960129851
6.865 0.00804431067575 0.0039031983115 -0.436521290394 0.89858100818 -0.436521290394 0.89858100818 0.00804431067575 0.0039031983115
6.9075 0.00824581514326 0.00373593984656 -0.412672901086 0.909777310566 -0.412672901086 0.909777310566 0.00824581514326 0.00373593984656
6.95 0.0084382202891 0.00355829124628 -0.388537684271 0.920340833212 -0.388537684271 0.920340833212 0.0084382202891 0.00355829124628
6.9925 0.00862099106769 0.00337074674109 -0.364132424253 0.930264240927 -0.364132424253 0.930264240927 0.00862099106769 0.00337074674109
7.035 0.00879361923658 0.00317382807427 -0.339474092309 0.939540643451 -0.339474092309 0.939540643451 0.00879361923658 0.00317382807427
7.0775 0.00895562476885 0.00296808305044 -0.314579834918 0.94816360019 -0.314579834918 0.94816360019 0.00895562476885 0.00296808305044
7.12 0.00910655718705 0.00275408401179 -0.289466961858 0.95612712463 -0.289466961858 0.95612712463 0.00910655718705 0.00275408401179
