# ghz S RI R 50.0
1 0.05 0 -0.9 2.89462076942e-16 -0.9 2.89462076942e-16 0.04 0
1.01 0.05 0 -0.899555904329 0.0282696831703 -0.899555904329 0.0282696831703 0.04 0
1.02 0.05 0 -0.898224055585 0.0565114675764 -0.898224055585 0.0565114675764 0.04 0
1.03 0.05 0 -0.896005768143 0.0846974819867 -0.896005768143 0.0846974819867 0.04 0
1.04 0.05 0 -0.892903231183 0.112799910208 -0.892903231183 0.112799910208 0.04 0
1.05 0.05 0 -0.888919506536 0.140791018536 -0.888919506536 0.140791018536 0.04 0
1.06 0.05 0 -0.884058525656 0.168643183127 -0.884058525656 0.168643183127 0.04 0
1.07 0.05 0 -0.878325085745 0.196328917257 -0.878325085745 0.196328917257 0.04 0
1.08 0.05 0 -0.871724845016 0.223820898448 -0.871724845016 0.223820898448 0.04 0
1.09 0.05 0 -0.864264317109 0.251091995435 -0.864264317109 0.251091995435 0.04 0
1.1 0.05 0 -0.855950864666 0.278115294937 -0.855950864666 0.278115294937 0.04 0
1.11 0.05 0 -0.846792692059 0.304864128221 -0.846792692059 0.304864128221 0.04 0
1.12 0.05 0 -0.836798837299 0.331312097416 -0.836798837299 0.331312097416 0.04 0
1.13 0.05 0 -0.825979163116 0.357433101571 -0.825979163116 0.357433101571 0.04 0
1.14 0.05 0 -0.814344347219 0.383201362409 -0.814344347219 0.383201362409 0.04 0
1.15 0.05 0 -0.80190587177 0.408591449766 -0.80190587177 0.408591449766 0.04 0
1.16 0.05 0 -0.788676012039 0.433578306692 -0.788676012039 0.433578306692 0.04 0
1.17 0.05 0 -0.774667824304 0.458137274175 -0.774667824304 0.458137274175 0.04 0
1.18 0.05 0 -0.759895132952 0.482244115481 -0.759895132952 0.482244115481 0.04 0
1.19 0.05 0 -0.744372516847 0.505875040067 -0.744372516847 0.505875040067 0.04 0
1.2 0.05 0 -0.728115294937 0.529006727063 -0.728115294937 0.529006727063 0.04 0
1.21 0.05 0 -0.711139511138 0.551616348288 -0.711139511138 0.551616348288 0.04 0
1.22 0.05 0 -0.693461918498 0.573681590774 -0.693461918498 0.573681590774 0.04 0
1.23 0.05 0 -0.675099962667 0.595180678791 -0.675099962667 0.595180678791 0.04 0
1.24 0.05 0 -0.656071764679 0.616092395336 -0.656071764679 0.616092395336 0.04 0
1.25 0.05 0 -0.636396103068 0.636396103068 -0.636396103068 0.636396103068 0.04 0
1.26 0.05 0 -0.616092395336 0.656071764679 -0.616092395336 0.656071764679 0.04 0
1.27 0.05 0 -0.595180678791 0.675099962667 -0.595180678791 0.675099962667 0.04 0
1.28 0.05 0 -0.573681590774 0.693461918498 -0.573681590774 0.693461918498 0.04 0
1.29 0.05 0 -0.551616348288 0.711139511138 -0.551616348288 0.711139511138 0.04 0
1.3 0.05 0 -0.529006727063 0.728115294937 -0.529006727063 0.728115294937 0.04 0
1.31 0.05 0 -0.505875040067 0.744372516847 -0.505875040067 0.744372516847 0.04 0
1.32 0.05 0 -0.482244115481 0.759895132952 -0.482244115481 0.759895132952 0.04 0
1.33 0.05 0 -0.458137274175 0.774667824304 -0.458137274175 0.774667824304 0.04 0
1.34 0.05 0 -0.433578306692 0.788676012039 -0.433578306692 0.788676012039 0.04 0
1.35 0.05 0 -0.408591449766 0.80190587177 -0.408591449766 0.80190587177 0.04 0
1.36 0.05 0 -0.383201362409 0.814344347219 -0.383201362409 0.814344347219 0.04 0
1.37 0.05 0 -0.357433101571 0.825979163116 -0.357433101571 0.825979163116 0.04 0
1.38 0.05 0 -0.331312097416 0.836798837299 -0.331312097416 0.836798837299 0.04 0
1.39 0.05 0 -0.304864128221 0.846792692059 -0.304864128221 0.846792692059 0.04 0
1.4 0.05 0 -0.278115294937 0.855950864666 -0.278115294937 0.855950864666 0.04 0
1.41 0.05 0 -0.251091995435 0.864264317109 -0.251091995435 0.864264317109 0.04 0
1.42 0.05 0 -0.223820898448 0.871724845016 -0.223820898448 0.871724845016 0.04 0
1.43 0.05 0 -0.196328917257 0.878325085745 -0.196328917257 0.878325085745 0.04 0
1.44 0.05 0 -0.168643183127 0.884058525656 -0.168643183127 0.884058525656 0.04 0
1.45 0.05 0 -0.140791018536 0.888919506536 -0.140791018536 0.888919506536 0.04 0
1.46 0.05 0 -0.112799910208 0.892903231183 -0.112799910208 0.892903231183 0.04 0
1.47 0.05 0 -0.0846974819867 0.896005768143 -0.0846974819867 0.896005768143 0.04 0
1.48 0.05 0 -0.0565114675764 0.898224055585 -0.0565114675764 0.898224055585 0.04 0
1.49 0.05 0 -0.0282696831703 0.899555904329 -0.0282696831703 0.899555904329 0.04 0
1.5 0.05 0 -1.65327317885e-16 0.9 -1.65327317885e-16 0.9 0.04 0
1.51 0.05 0 0.0282696831703 0.899555904329 0.0282696831703 0.899555904329 0.04 0
1.52 0.05 0 0.0565114675764 0.898224055585 0.0565114675764 0.898224055585 0.04 0
1.53 0.05 0 0.0846974819867 0.896005768143 0.0846974819867 0.896005768143 0.04 0
1.54 0.05 0 0.112799910208 0.892903231183 0.112799910208 0.892903231183 0.04 0
1.55 0.05 0 0.140791018536 0.888919506536 0.140791018536 0.888919506536 0.04 0
1.56 0.05 0 0.168643183127 0.884058525656 0.168643183127 0.884058525656 0.04 0
1.57 0.05 0 0.196328917257 0.878325085745 0.196328917257 0.878325085745 0.04 0
1.58 0.05 0 0.223820898448 0.871724845016 0.223820898448 0.871724845016 0.04 0
1.59 0.05 0 0.251091995435 0.864264317109 0.251091995435 0.864264317109 0.04 0
1.6 0.05 0 0.278115294937 0.855950864666 0.278115294937 0.855950864666 0.04 0
1.61 0.05 0 0.304864128221 0.846792692059 0.304864128221 0.846792692059 0.04 0
1.62 0.05 0 0.331312097416 0.836798837299 0.331312097416 0.836798837299 0.04 0
1.63 0.05 0 0.357433101571 0.825979163116 0.357433101571 0.825979163116 0.04 0
1.64 0.05 0 0.383201362409 0.814344347219 0.383201362409 0.814344347219 0.04 0
1.65 0.05 0 0.408591449766 0.80190587177 0.408591449766 0.80190587177 0.04 0
1.66 0.05 0 0.433578306692 0.788676012039 0.433578306692 0.788676012039 0.04 0
1.67 0.05 0 0.458137274175 0.774667824304 0.458137274175 0.774667824304 0.04 0
1.68 0.05 0 0.482244115481 0.759895132952 0.482244115481 0.759895132952 0.04 0
1.69 0.05 0 0.505875040067 0.744372516847 0.505875040067 0.744372516847 0.04 0
1.7 0.05 0 0.529006727063 0.728115294937 0.529006727063 0.728115294937 0.04 0
1.71 0.05 0 0.551616348288 0.711139511138 0.551616348288 0.711139511138 0.04 0
1.72 0.05 0 0.573681590774 0.693461918498 0.573681590774 0.693461918498 0.04 0
1.73 0.05 0 0.595180678791 0.675099962667 0.595180678791 0.675099962667 0.04 0
1.74 0.05 0 0.616092395336 0.656071764679 0.616092395336 0.656071764679 0.04 0
1.75 0.05 0 0.636396103068 0.636396103068 0.636396103068 0.636396103068 0.04 0
1.76 0.05 0 0.656071764679 0.616092395336 0.656071764679 0.616092395336 0.04 0
1.77 0.05 0 0.675099962667 0.595180678791 0.675099962667 0.595180678791 0.04 0
1.78 0.05 0 0.693461918498 0.573681590774 0.693461918498 0.573681590774 0.04 0
1.79 0.05 0 0.711139511138 0.551616348288 0.711139511138 0.551616348288 0.04 0
1.8 0.05 0 0.728115294937 0.529006727063 0.728115294937 0.529006727063 0.04 0
1.81 0.05 0 0.744372516847 0.505875040067 0.744372516847 0.505875040067 0.04 0
1.82 0.05 0 0.759895132952 0.482244115481 0.759895132952 0.482244115481 0.04 0
1.83 0.05 0 0.774667824304 0.458137274175 0.774667824304 0.458137274175 0.04 0
1.84 0.05 0 0.788676012039 0.433578306692 0.788676012039 0.433578306692 0.04 0
1.85 0.05 0 0.80190587177 0.408591449766 0.80190587177 0.408591449766 0.04 0
1.86 0.05 0 0.814344347219 0.383201362409 0.814344347219 0.383201362409 0.04 0
1.87 0.05 0 0.825979163116 0.357433101571 0.825979163116 0.357433101571 0.04 0
1.88 0.05 0 0.836798837299 0.331312097416 0.836798837299 0.331312097416 0.04 0
1.89 0.05 0 0.846792692059 0.304864128221 0.846792692059 0.304864128221 0.04 0
1.9 0.05 0 0.855950864666 0.278115294937 0.855950864666 0.278115294937 0.04 0
1.91 0.05 0 0.864264317109 0.251091995435 0.864264317109 0.251091995435 0.04 0
1.92 0.05 0 0.871724845016 0.223820898448 0.871724845016 0.223820898448 0.04 0
1.93 0.05 0 0.878325085745 0.196328917257 0.878325085745 0.196328917257 0.04 0
1.94 0.05 0 0.884058525656 0.168643183127 0.884058525656 0.168643183127 0.04 0
1.95 0.05 0 0.888919506536 0.140791018536 0.888919506536 0.140791018536 0.04 0
1.96 0.05 0 0.892903231183 0.112799910208 0.892903231183 0.112799910208 0.04 0
1.97 0.05 0 0.896005768143 0.0846974819867 0.896005768143 0.0846974819867 0.04 0
1.98 0.05 0 0.898224055585 0.0565114675764 0.898224055585 0.0565114675764 0.04 0
1.99 0.05 0 0.899555904329 0.0282696831703 0.899555904329 0.0282696831703 0.04 0
2 0.05 0 0.9 -5.78924153884e-16 0.9 -5.78924153884e-16 0.04 0
