# ghz S RI R 50.0
1 3.24550070533e-17 -1.52440591472e-17 -0.310044874305 0.859269987066 -0.309487044668 0.857723997098 -1.52440591472e-17 -3.24550070533e-17
1.0095 -5.1898289488e-17 6.21800448195e-18 -0.11455577085 0.906277526085 -0.114349663252 0.904646960623 -0 -0
1.019 1.00961487392e-16 -9.60125579565e-18 0.0864804240472 0.909380233991 0.086324829333 0.907744086168 5.04807436958e-17 -4.80062789783e-18
1.0285 2.22658257669e-17 -3.39335237063e-17 0.283324538605 0.868428364495 0.282814783928 0.866865896866 -2.22658257669e-17 3.39335237063e-17
1.038 7.22046717681e-17 -1.01857286063e-16 0.466440608422 0.785406373288 0.465601393144 0.783993277995 1.02190576094e-16 -1.71333455481e-18
1.0475 -6.96063027202e-17 -7.37561961705e-17 0.626957837987 0.66433675518 0.625829821714 0.663141487133 6.96063027202e-17 7.37561961705e-17
1.057 -4.20275110652e-17 -2.83709251077e-17 0.75710033269 0.511085150973 0.755738165342 0.510165611681 -4.20275110652e-17 -2.83709251077e-17
1.0665 -3.68154640033e-17 -4.50483148054e-17 0.850563783674 0.333076166769 0.84903345782 0.332476899461 8.08913064096e-18 -2.0656901487e-17
1.076 1.92809204361e-18 -1.25291562951e-17 0.902820857953 0.138933673746 0.901196511694 0.13868370567 1.92809204361e-18 -1.25291562951e-17
1.0855 -1.02253556089e-16 -8.93285089826e-18 0.911340500261 -0.0619369852122 0.909700825546 -0.0618255488078 1.01179120666e-16 -6.87638670584e-18
1.095 -5.13158345859e-17 5.30736112888e-18 0.875710523775 -0.259804641617 0.874134954157 -0.259337203704 2.70413526589e-18 9.11469362251e-18
1.1045 -2.16187212846e-17 -3.87440278785e-17 0.797657552076 -0.445083726271 0.796222414585 -0.444282936081 -2.77954987945e-17 -4.98137501295e-17
1.114 -5.04742267767e-17 1.96197158287e-17 0.680963347526 -0.608798634903 0.67973816508 -0.607703290487 5.04742267767e-17 -1.96197158287e-17
1.1235 0 0 0.531281580744 -0.743018538752 0.530325704236 -0.741681707227 0 0
1.133 -3.14289879097e-17 4.17596844119e-17 0.35586391887 -0.841241576343 0.355223652065 -0.839728022911 -8.17220046412e-17 -3.45702276817e-17
1.1425 3.51513365954e-17 1.92670313693e-17 0.163208703189 -0.898709815158 0.162915059722 -0.897092865445 1.92670313693e-17 -3.51513365954e-17
1.152 2.0034822629e-17 2.45533219696e-17 -0.0373507633755 -0.912639725916 -0.0372835622555 -0.910997713647 -2.0034822629e-17 -2.45533219696e-17
1.1615 7.95935613877e-17 -2.12974002967e-17 -0.236098373022 -0.882357005309 -0.23567358719 -0.880769477409 6.73483980973e-17 -1.80208771741e-17
1.171 -4.38864453797e-17 8.01824207412e-17 -0.423405909168 -0.809329216935 -0.422644121491 -0.807873079901 -1.12316991393e-16 5.87593736401e-17
1.1805 0 -0 -0.590199479093 -0.697094670363 -0.589137598092 -0.695840464603 0 -0
1.19 7.26552756488e-17 -9.60313957208e-17 -0.728399087131 -0.551090984991 -0.727088558777 -0.550099467602 1.10894894411e-16 -1.46574235574e-16
1.1995 -1.72651638576e-17 -8.44570507483e-17 -0.831310053915 -0.378391644983 -0.829814369179 -0.377710846519 8.02800313455e-17 -5.39838836204e-17
1.209 -1.88513647576e-17 8.99435813477e-17 -0.893947320148 -0.187363308795 -0.892338939069 -0.187026206603 -1.75512706364e-17 8.37405757376e-17
1.2185 -2.43095071492e-19 -1.7427112141e-17 -0.913276925024 0.0127395243449 -0.911633766313 0.0127166035201 -3.31493279308e-19 -2.37642438286e-17
1.228 3.90059076479e-17 -5.49305293399e-17 -0.888362961969 0.212222854144 -0.886764628211 0.211841024907 4.19510913857e-17 -4.26020166574e-17
1.2375 -1.71444070824e-16 -4.30914920422e-18 -0.820412893642 0.401422805105 -0.818936814968 0.400700569208 1.35096162759e-17 -8.77501593452e-17
1.247 -1.12815879609e-16 2.13764341497e-17 -0.712719032106 0.571173787549 -0.711436715151 0.570146137382 4.94028506096e-17 -1.00504142103e-16
1.2565 -2.67198738728e-17 4.35521003475e-17 -0.570499020324 0.713252514045 -0.569472584191 0.711969237254 2.67198738728e-17 -4.35521003475e-17
1.266 1.4834776424e-16 1.00621668467e-16 -0.400643043929 0.82077636142 -0.399922210971 0.819299628798 1.25025680115e-16 3.28192711403e-17
1.2755 3.53046368463e-18 3.99262617673e-17 -0.211380020502 0.88853678046 -0.210999707683 0.88693813397 4.579323591e-17 -2.81923134819e-17
1.285 -5.56380186361e-19 4.27744528335e-17 -0.011878938548 0.913251602214 -0.0118575660806 0.911608489064 5.97593533499e-19 -4.59429308212e-17
1.2945 -1.41655505234e-16 3.92326038612e-18 0.188195340201 0.893724019001 0.187856741027 0.892116039683 -1.06402740655e-16 4.83114395684e-17
1.304 -3.45931841264e-17 1.57853020544e-17 0.379150295734 0.830900539419 0.378468132313 0.829405591478 -5.76553068773e-17 2.63088367573e-17
1.3135 -1.98755506142e-17 7.86867368518e-17 0.551735299303 0.72782511093 0.55074262267 0.726515615269 -6.09292689913e-17 -1.74318135733e-17
1.323 5.71308997013e-17 1.0941103524e-17 0.697589750488 0.589491633664 0.696334653985 0.588431026211 -5.71308997013e-17 -1.0941103524e-17
1.3325 4.78768882157e-17 1.78410619585e-17 0.809648092276 0.422602011487 0.808191381524 0.421841670174 -4.78768882157e-17 -1.78410619585e-17
1.342 -8.57328262161e-17 -7.20429204407e-17 0.882482083929 0.235241462461 0.880894330989 0.234818218374 1.60837471433e-16 -1.28737480005e-17
1.3515 -3.10143253278e-18 7.75692423576e-17 0.912563751124 0.0364868190013 0.910921875549 0.0364211722814 -2.72166528387e-18 6.80709677832e-17
1.361 -1.82113441909e-17 -9.97464639511e-17 0.898436275763 -0.164033205824 0.8968198182 -0.16373807892 -1.36585081431e-17 -7.48098479633e-17
1.3705 -9.24500706027e-17 -8.81355979405e-17 0.840784547834 -0.356604482695 0.839271816684 -0.355962883476 -6.52755624045e-18 -1.45228992998e-16
1.38 7.81194299032e-17 2.19882106956e-17 0.742401962569 -0.531898063232 0.741066240382 -0.530941077555 -1.90668822478e-17 6.04349645416e-17
1.3895 2.83698944384e-17 2.53153778164e-17 0.608055072537 -0.681422112113 0.606961065932 -0.680196104263 4.72831573973e-17 4.21922963607e-17
1.399 4.30372556811e-17 5.2973317742e-17 0.444252652645 -0.797933280733 0.443453357715 -0.796497647154 4.55511343574e-17 -3.65136537022e-18
1.4085 -1.81200151757e-16 -8.00053894047e-17 0.258930366608 -0.875787594075 0.258464501681 -0.874211885794 -1.59111691311e-16 -2.06092697692e-17
1.418 3.03428832665e-17 2.10871120466e-17 0.0610663119633 -0.91121385292 0.0609564420654 -0.909574406068 -3.03428832665e-17 -2.10871120466e-17
1.4275 -4.62196582111e-17 3.28072060976e-17 -0.139753930905 -0.902496307439 -0.13950248703 -0.900872545108 -5.39775598047e-17 -1.72914029103e-17
1.437 -8.8476908467e-17 3.47432160369e-17 -0.333801674234 -0.850057753606 -0.3332011016 -0.848528338197 -1.00273829596e-16 3.93756448418e-17
1.4465 2.93336042863e-17 -8.10459540504e-17 -0.511676426103 -0.756439027954 -0.510755822994 -0.755078050419 5.46479982696e-17 2.42384591087e-17
1.456 -8.6899362032e-18 9.22541611574e-18 -0.664761289299 -0.626175895146 -0.663565257435 -0.625049285737 8.6899362032e-18 -9.22541611574e-18
1.4655 -1.58296922585e-16 6.82427724089e-17 -0.785640394451 -0.465579293588 -0.78422687811 -0.464741627979 1.61502884142e-17 1.71622142715e-16
1.475 -1.28754080293e-16 6.8075309455e-17 -0.86845814552 -0.282429585978 -0.866895624309 -0.281921441491 1.78330030014e-17 1.09083144902e-16
1.4845 4.90022555627e-18 -5.20481138535e-17 -0.909202874788 -0.0855996275946 -0.907567046067 -0.0854456176006 -4.5867656093e-17 -5.36454165836e-17
1.494 9.61720681544e-17 -4.73819442252e-17 -0.905901166652 0.115375086677 -0.904271278332 0.115167504974 -5.5491357319e-17 -3.44540846535e-17
1.5035 2.77222172779e-17 -7.23668782583e-17 -0.85871343725 0.310758372012 -0.857168448621 0.310199258657 -6.22233272482e-17 -2.29694647007e-17
1.513 4.75615652786e-17 1.68835243655e-16 -0.76992614064 0.491085020771 -0.768540897227 0.490201465513 1.29632951282e-16 1.0897141814e-16
1.5225 -8.49619936571e-17 5.84975571883e-17 -0.643840980206 0.647619337299 -0.642682587953 0.646454147063 8.49619936571e-17 -5.84975571883e-17
1.532 1.9873208832e-19 -5.97789809586e-17 -0.486566493454 0.77277832707 -0.485691067885 0.771387952031 -8.59943612527e-17 5.75924855418e-18
1.5415 -1.51787370005e-16 -2.70293123259e-17 -0.305722107785 0.860499039359 -0.305172055626 0.858950838092 -1.34816383845e-16 -7.47966046341e-17
1.551 -2.16162533272e-16 -7.09674934004e-18 -0.110069005023 0.906532268303 -0.10987096997 0.904901244512 -1.87946179759e-16 -2.92030456691e-17
1.5605 -1.13483398088e-17 1.38717191466e-17 0.0909143219643 0.908648384913 0.0907507498254 0.907013553825 -4.0353467771e-17 -2.14349899487e-17
1.57 -4.04902241518e-18 2.80467582085e-17 0.287491258037 0.866745329517 0.28697400664 0.865185889987 -4.40650086506e-17 -1.2087787506e-17
1.5795 -0 0 0.470138754423 0.782853534017 0.469292885478 0.781445031768 -0 0
1.589 -4.30042722982e-17 1.11011530669e-16 0.630008666384 0.661037536553 0.628875161091 0.659848204427 -1.03775546346e-16 2.88784947576e-17
1.5985 -2.47158608541e-17 1.28267978674e-16 0.759356390729 0.507199055857 0.757990164305 0.506286508387 -8.7904953122e-17 4.03430111028e-17
1.608 -4.04465010678e-17 -3.59856356208e-17 0.851916038407 0.328791066287 0.85038327959 0.328199508689 -5.41351790209e-17 -5.1750558753e-19
1.6175 -3.89421205703e-17 -8.26706857074e-17 0.903203967642 0.134456725923 0.901578932095 0.134214812726 -3.89421205703e-17 -8.26706857074e-17
1.627 9.37413063063e-17 -1.084827032e-16 0.91073597386 -0.0663893495595 0.909097386803 -0.0662699025057 -1.084827032e-16 -9.37413063063e-17
1.6365 -4.53189628663e-17 2.52707284307e-17 0.874147615598 -0.264017181664 0.87257485795 -0.263542164591 -3.20597762166e-18 -1.06148307317e-17
1.646 2.85704154908e-17 -5.25057887173e-17 0.795211848261 -0.448852796845 0.793781111056 -0.448045225382 -6.59449187202e-17 -1.37088990372e-17
1.6555 -2.18239561639e-17 -9.98096038487e-17 0.677753112497 -0.611942031935 0.676533705874 -0.610841031951 -1.14054470554e-16 -5.06818182523e-17
1.665 2.92800250811e-17 -4.13771410733e-17 0.527462040178 -0.745384308478 0.52651303575 -0.744043220484 -2.92800250811e-17 4.13771410733e-17
1.6745 7.01701498809e-17 2.92782261322e-17 0.351619755464 -0.842715362283 0.350987124716 -0.84119915723 2.33900499603e-17 9.75940871073e-18
1.684 -3.96406003946e-17 5.87009612761e-18 0.158745127947 -0.899220387569 0.158459515301 -0.89760251924 -6.01929174545e-17 -2.3494345737e-17
1.6935 -3.82665599918e-17 -4.58837710945e-18 -0.0418179326943 -0.912162426257 -0.0417426942879 -0.910521272742 -1.23686263996e-17 6.90973869542e-18
1.703 8.55760542081e-17 -2.33489897756e-17 -0.240353146635 -0.880914939071 -0.239920705657 -0.879330005721 6.11257530058e-17 -1.66778498397e-17
1.7125 -5.59963282009e-17 2.96459085512e-17 -0.427242568653 -0.806992137023 -0.426473878096 -0.80554020484 -4.5456160341e-17 -4.61098614966e-18
1.722 -3.77575457048e-17 -3.44056194297e-17 -0.59343252445 -0.693975604929 -0.592364826587 -0.69272701096 3.77575457048e-17 3.44056194297e-17
1.7315 -3.22824861803e-17 4.31072799363e-17 -0.730872206524 -0.547340772639 -0.729557228559 -0.546356002594 -2.84845466297e-17 3.80358352379e-17
1.741 1.81753327009e-17 -4.04560119853e-17 -0.832903682295 -0.374191641504 -0.831405130318 -0.373518399644 2.59647610012e-18 -5.77943028362e-18
1.7505 3.44285430256e-17 8.46430286868e-17 -0.894584421195 -0.182916618021 -0.89297489385 -0.182587516271 -1.52308680685e-17 7.44891166411e-17
1.76 -1.02161668713e-16 -4.08476682509e-17 -0.912926716722 0.0172178715896 -0.911284188103 0.0171868933672 1.00608519919e-16 -4.1503452931e-17
1.7695 1.57750280222e-17 6.46284779747e-17 -0.88704240556 0.216516298125 -0.885446447734 0.216126744167 1.12678771587e-17 4.61631985533e-17
1.779 1.02086872979e-16 -2.22907537998e-17 -0.818185873847 0.405323729475 -0.816713802005 0.404594475074 -7.95868861346e-17 6.77091935782e-17
1.7885 6.82355558111e-17 1.64851928746e-16 -0.709693268166 0.574493559426 -0.708416395135 0.573459936359 1.23109237341e-16 7.15234132759e-17
1.798 2.00345347757e-16 9.39891518236e-17 -0.566820857139 0.715830606323 -0.565801038721 0.714542691055 1.17547300592e-16 1.5772987475e-16
1.8075 -5.21834138981e-17 -8.14229226068e-17 -0.396490375108 0.822488116095 -0.39577701359 0.821008303701 -1.30445634896e-16 -6.61562609069e-18
1.817 3.08537722271e-17 7.18014833386e-18 -0.206953685509 0.889299437473 -0.206581336508 0.887699418818 -3.08537722271e-17 -7.18014833386e-18
1.8265 2.47228339803e-16 -1.62136205948e-17 -0.00739300993175 0.913028302174 -0.00737970850221 0.911385590783 2.08882455157e-16 2.46587259162e-17
1.836 -9.71447472906e-18 1.50580866651e-17 0.192523909791 0.892525586109 0.192177522697 0.890919763 9.71447472906e-18 -1.50580866651e-17
1.8455 1.15017017895e-17 -5.31674934716e-18 0.383112166059 0.828784958293 0.382422874481 0.827293816684 -1.15017017895e-17 5.31674934716e-18
1.855 1.40839091992e-16 -1.07857391623e-16 0.555138867112 0.724894722532 0.554140066814 0.723590499196 1.00599351423e-16 -7.70409940166e-17
1.8645 -4.29382329523e-17 -2.76642255667e-17 0.700270416462 0.585888185872 0.699010496931 0.584834061707 4.29382329523e-17 2.76642255667e-17
1.874 -3.34302763412e-17 -4.57543955319e-17 0.811476222102 0.418499803621 0.810016222198 0.41774684296 5.66616822302e-17 7.08416246233e-19
1.8835 -8.20560237945e-17 -8.69243248793e-17 0.883369278409 0.230838915266 0.881779929237 0.230423592198 1.17294892117e-16 -4.79270005395e-17
1.893 -2.05371219638e-18 5.85664910893e-17 0.912467121976 0.0319968777768 0.910825420254 0.0319393093143 -1.94270072631e-18 5.54007348142e-17
1.9025 4.6308124346e-17 -2.80277782035e-17 0.897360520246 -0.168393370801 0.895745998171 -0.168090399132 -5.09819792824e-17 3.12102042933e-18
1.912 1.75163207697e-17 4.07415216313e-17 0.83878172177 -0.360623980303 0.837272594084 -0.359975149244 -7.06024941677e-17 9.24192609996e-17
1.9215 1.09551468471e-17 1.01564765863e-16 0.739568962664 -0.535382482113 0.738238337582 -0.534419227305 1.07923644877e-16 6.26525322667e-17
1.931 7.15389899568e-17 -4.42279405543e-18 0.604528949704 -0.684202924344 0.603441287263 -0.682971913285 4.42279405543e-18 7.15389899568e-17
1.9405 -4.99522919071e-17 -2.74907586053e-17 0.440203982973 -0.799875993668 0.439411972369 -0.798436864779 -3.88517825944e-17 -2.13817011375e-17
1.95 -9.6362850683e-17 -5.43636527008e-17 0.254555000558 -0.876798255997 0.254097007746 -0.875220729342 -9.83254716687e-17 -2.15891182971e-18
1.9595 -7.48948363128e-17 -2.05184466971e-17 0.0565759008623 -0.911243597774 0.0564741100672 -0.909604097405 -7.68577071808e-17 1.10966665307e-17
1.969 5.23006969481e-17 -3.40245500566e-17 -0.144142172853 -0.901543718731 -0.143882833697 -0.899921670288 9.78364921881e-17 1.00200561885e-17
1.9785 6.98514823359e-18 5.17717980908e-17 -0.337875477193 -0.848168933062 -0.337267575013 -0.846642915999 1.17707084782e-17 -4.68896417795e-18
1.988 1.1227960028e-16 -1.53639379066e-17 -0.515238732837 -0.753705365549 -0.514311720461 -0.752349306393 5.50766098429e-17 -9.90420429682e-17
1.9975 1.06198332589e-16 -3.95544667573e-17 -0.667639787659 -0.622729648323 -0.66643857683 -0.621609239367 1.06198332589e-16 -3.95544667573e-17
2.007 9.38576163072e-17 4.03149966544e-17 -0.787695852974 -0.461587189442 -0.786278638472 -0.460756706387 -9.38576163072e-17 -4.03149966544e-17
2.0165 9.60296210513e-17 -1.33904712921e-16 -0.86959114884 -0.278084755876 -0.868026589141 -0.277584428564 -3.40879141996e-18 -1.55727321715e-16
2.026 -1.26636614231e-18 1.4197371919e-17 -0.909358633017 -0.0811122643433 -0.907722524058 -0.0809663279684 -9.84951444022e-19 1.10424003814e-17
2.0355 -6.64956407509e-18 -5.02415978813e-17 -0.905072165988 0.119787897163 -0.903443769197 0.119572375976 -5.81836856571e-18 -4.39613981462e-17
2.045 -3.93289341903e-17 -1.07031858819e-16 -0.856939803543 0.314883152647 -0.855398006018 0.314316618028 -3.05891710369e-17 -8.32470013035e-17
2.0545 -8.41042142471e-17 -1.30442154354e-16 -0.767293698275 0.494722230783 -0.765913191126 0.493832131493 -8.06713891758e-17 -1.25117984788e-16
2.064 9.59033862899e-18 8.05571942934e-17 -0.640477100139 0.650593025634 -0.639324760145 0.649422485168 6.26399970429e-17 -9.44995196149e-18
2.0735 -1.07545173416e-17 -6.69789128653e-18 -0.482633931235 0.774944644673 -0.481765581092 0.773550372018 1.07545173416e-17 6.69789128653e-18
2.083 -1.10019277666e-16 -1.16363613855e-17 -0.30141112962 0.861753198489 -0.30086883373 0.860202740752 -8.13283708355e-17 -5.5290353811e-17
2.0925 1.37697570599e-16 2.24109177989e-17 -0.10558818279 0.90681361215 -0.105398209588 0.905182082167 1.13261102016e-16 1.3187973562e-17
2.102 2.33045606116e-18 -3.84623453549e-17 0.0953482014409 0.907943322202 0.0951766519104 0.906309759657 4.8070523007e-17 3.31694569251e-17
2.1115 -3.7834197432e-17 6.62364404167e-17 0.291663681271 0.865087992087 0.291138922892 0.863531534422 -1.06231893639e-16 -1.76646802576e-17
2.121 -6.96205307383e-17 -1.70128503404e-17 0.473847859674 0.780324125488 0.472995317343 0.778920174125 -1.70128503404e-17 6.96205307383e-17
2.1305 1.17296812649e-16 -4.25581970046e-17 0.63307501006 0.657758451948 0.631935987832 0.656575019519 2.87549029504e-17 -9.8012693492e-17
2.14 -8.94284229464e-17 4.34055244244e-17 0.761631629252 0.503328959869 0.760261309241 0.502423375438 -2.2333057095e-17 1.25710669791e-16
2.1495 7.88126687726e-18 -2.07231132885e-17 0.853290105454 0.324517216655 0.851754874429 0.323933348524 1.01330574136e-17 -2.66440027995e-17
2.159 2.17597478829e-17 -1.51265117706e-16 0.903610399486 0.129985913311 0.901984632691 0.129752043956 7.16947118075e-17 -1.42481935842e-16
2.1685 9.93885132419e-17 -2.91796202245e-17 0.910155125095 -0.07084080684 0.908517583096 -0.0707133507687 -1.02337854298e-16 -8.7131988703e-18
2.178 -1.53552844615e-17 -4.995318589e-17 0.87260760964 -0.268233904015 0.871037622755 -0.267751300258 -6.28641141451e-17 -3.20357472674e-17
2.1875 -1.72362275393e-17 -1.32396849307e-16 0.792787216571 -0.452630764416 0.791360841739 -0.451816395671 -9.58310191301e-17 -6.56415405233e-17
2.197 -4.26810292735e-18 -4.6807085176e-18 0.674561188342 -0.615098456102 0.673347524598 -0.613991777111 4.26810292735e-18 4.6807085176e-18
2.2065 2.7812508619e-16 1.32903533295e-16 0.523657281369 -0.747766476125 0.522715122425 -0.746421102159 2.7812508619e-16 1.32903533295e-16
2.216 3.51472195066e-17 1.44628588582e-17 0.347386270743 -0.844208024923 0.346761256839 -0.842689134287 1.17157398355e-17 4.82095295272e-18
2.2255 7.90214550281e-17 2.6404182087e-17 0.154287768613 -0.899751337741 0.154010175603 -0.898132514131 7.08172427115e-17 -7.10107117114e-19
2.235 1.84424171795e-16 9.66516389201e-18 -0.0462834848957 -0.911705991352 -0.0462002121125 -0.91006565905 2.20454621521e-16 -3.02191601284e-17
2.2445 1.17324700825e-16 1.99670968658e-17 -0.24461081575 -0.879493223487 -0.244170714417 -0.877910848074 7.79620245188e-17 -7.42816088095e-17
2.254 2.31321438717e-17 1.63516639828e-17 -0.431086339912 -0.804673952514 -0.43031073368 -0.803226191185 7.97955136819e-19 2.83167134871e-17
2.2635 -2.35344037408e-17 -4.6631712052e-17 -0.596676412886 -0.690873140862 -0.59560287865 -0.689630128816 2.35344037408e-17 4.6631712052e-17
2.273 -5.28081629923e-17 7.12418290357e-17 -0.733359256454 -0.543604167255 -0.732039803813 -0.542626120073 -6.78962095615e-17 9.15966373317e-17
2.2825 -3.48830573159e-17 -1.71366966575e-16 -0.834513562161 -0.370001716837 -0.833012113705 -0.369336013448 6.54687677636e-17 -1.47660327265e-16
2.292 1.11458423743e-17 -5.59077313346e-17 -0.895239246243 -0.178476130004 -0.893628540743 -0.178155017535 1.36226962352e-17 -6.83316716312e-17
2.3015 1.05372870959e-18 4.43267903219e-17 -0.91259481772 0.021694044452 -0.91095288625 0.0216550127442 8.27929700396e-19 3.48281923958e-17
2.311 -7.40664933661e-17 -8.76158890029e-17 -0.885739861174 0.220811552749 -0.884146246874 0.220414270812 2.19721034984e-17 -1.21349978384e-16
2.3205 -1.02087853824e-16 -9.05225401027e-17 -0.815975732483 0.409230219708 -0.814507637105 0.408493936789 -1.14963492497e-17 -1.35956221332e-16
2.33 1.686700825e-16 4.61797275304e-17 -0.706682496895 0.577822253862 -0.705411040813 0.576782641841 2.37833886139e-17 1.89192826215e-16
2.3395 6.48055613622e-17 5.07997612675e-17 -0.563155165328 0.718420435698 -0.562141942186 0.717127860834 9.47158204524e-17 7.42458049294e-17
