# ghz S RI R 50.0
1 2.98973879718e-16 -2.505007717e-16 0.826354438936 -0.560733481344 0.826354438936 -0.560733481344 -5.65066342076e-17 -1.82002461888e-16
1.0095 -3.46343908062e-16 1.81147699079e-16 0.823159993803 -0.565401155009 0.823159993803 -0.565401155009 1.81106295174e-16 -1.00918793786e-15
1.019 -8.42730467543e-17 6.55683427756e-16 0.819939208671 -0.570050648371 0.819939208671 -0.570050648371 4.91746263092e-16 -2.63814069128e-16
1.0285 -1.62971379217e-16 -1.3527349381e-16 0.816692186562 -0.574681812692 0.816692186562 -0.574681812692 9.9168881189e-17 4.46024468543e-17
1.038 3.15139254987e-16 -1.30857315584e-16 0.813419031344 -0.579294499819 0.813419031344 -0.579294499819 2.65028231994e-16 -1.01004228313e-17
1.0475 4.82537090135e-16 5.74691926392e-16 0.810119847733 -0.58388856219 0.810119847733 -0.58388856219 -1.29231395084e-16 6.73961762257e-16
1.057 -4.40474867017e-16 -2.27623615454e-16 0.806794741289 -0.588463852837 0.806794741289 -0.588463852837 -1.13811807727e-16 2.20237433509e-16
1.0665 -3.49766876284e-16 -4.73875970163e-16 0.803443818408 -0.593020225392 0.803443818408 -0.593020225392 -4.67903150001e-16 1.1282857515e-16
1.076 -3.81930680794e-17 4.14984786271e-17 0.800067186323 -0.59755753409 0.800067186323 -0.59755753409 1.2701836923e-16 -1.07840691916e-16
1.0855 1.2327145345e-16 -1.12703675247e-16 0.796664953098 -0.602075633774 0.796664953098 -0.602075633774 2.0891510182e-16 6.19783276503e-19
1.095 -1.43309561289e-16 -4.8991958692e-18 0.793237227625 -0.606574379904 0.793237227625 -0.606574379904 -2.76301816622e-16 1.86205309546e-16
1.1045 -7.77621160894e-17 -9.92153531907e-18 0.789784119619 -0.611053628556 0.789784119619 -0.611053628556 1.37291328004e-16 -4.56651161217e-16
1.114 -1.01049343169e-16 1.40696189779e-16 0.786305739617 -0.615513236427 0.786305739617 -0.615513236427 2.56682513526e-16 -1.21734412832e-16
1.1235 -5.17452072473e-18 1.72032462955e-16 0.78280219897 -0.619953060846 0.78280219897 -0.619953060846 5.592325069e-17 7.06131582832e-17
1.133 2.51150143937e-16 1.36157958642e-16 0.779273609845 -0.624372959771 0.779273609845 -0.624372959771 -1.99028247172e-16 1.06194865773e-16
1.1425 -4.74241026554e-17 2.95212621652e-17 0.775720085215 -0.628772791798 0.775720085215 -0.628772791798 -1.08505930343e-16 -4.58356890209e-17
1.152 -5.28287164504e-17 2.85248937432e-16 0.772141738859 -0.633152416164 0.772141738859 -0.633152416164 2.19668872038e-17 2.67890480236e-17
1.1615 1.93703771344e-16 5.98757897932e-17 0.768538685359 -0.637511692753 0.768538685359 -0.637511692753 8.94082925613e-17 2.81423947727e-16
1.171 -2.46461628352e-17 5.68604053921e-17 0.764911040092 -0.641850482098 0.764911040092 -0.641850482098 -1.17873273883e-16 -2.26704775092e-16
1.1805 -2.46603262091e-17 -2.90526218066e-17 0.761258919229 -0.646168645388 0.761258919229 -0.646168645388 -4.7078804581e-17 -5.54640961763e-17
1.19 2.42341495769e-16 1.97161678701e-16 0.757582439733 -0.650466044472 0.757582439733 -0.650466044472 2.0284824065e-16 1.51164817189e-16
1.1995 -6.03729110946e-17 -1.54045380759e-16 0.753881719349 -0.654742541861 0.753881719349 -0.654742541861 7.13795708435e-17 -2.3433280255e-18
1.209 7.34669274949e-18 -7.56211800155e-17 0.750156876607 -0.658998000737 0.750156876607 -0.658998000737 -1.5367364347e-16 -9.09471072825e-17
1.2185 -2.18750506282e-17 5.88285837446e-17 0.746408030813 -0.663232284954 0.746408030813 -0.663232284954 2.79713227915e-16 -4.36230823274e-16
1.228 -1.68157156114e-16 3.93334339818e-16 0.742635302048 -0.667445259042 0.742635302048 -0.667445259042 -1.04233402347e-16 2.98620760111e-16
1.2375 4.36924681575e-16 6.86378684911e-17 0.738838811162 -0.671636788215 0.738838811162 -0.671636788215 -4.91695217089e-17 2.83115641083e-17
1.247 -5.66101434343e-15 -1.32815702393e-14 0.735018679772 -0.675806738371 0.735018679772 -0.675806738371 1.37345674347e-15 1.41190300528e-15
1.2565 -2.85552744512e-16 -3.88453948002e-16 0.731175030255 -0.6799549761 0.731175030255 -0.6799549761 -1.51327334868e-15 2.44724960851e-16
1.266 5.99541217492e-16 -1.71564533988e-16 0.727307985747 -0.684081368685 0.727307985747 -0.684081368685 -1.13117923785e-15 -3.93667316251e-16
1.2755 2.48823854886e-16 -6.01000152156e-17 0.723417670138 -0.68818578411 0.723417670138 -0.68818578411 -2.48823854886e-16 6.01000152156e-17
1.285 3.31756520344e-17 -1.08468607001e-15 0.719504208068 -0.692268091061 0.719504208068 -0.692268091061 4.97291781971e-17 8.51090661414e-16
1.2945 9.43589970809e-17 1.76439624286e-16 0.715567724921 -0.696328158931 0.715567724921 -0.696328158931 4.51068733066e-16 6.61643467091e-17
1.304 -9.71952876275e-18 -9.8755496395e-18 0.711608346824 -0.700365857826 0.711608346824 -0.700365857826 2.41740052055e-16 4.03649368205e-16
1.3135 -3.08640968589e-16 4.18957684059e-18 0.70762620064 -0.704381058568 0.70762620064 -0.704381058568 -3.19857352034e-16 6.21426478625e-16
1.323 -4.2377353995e-16 -7.33408355535e-16 0.703621413966 -0.708373632698 0.703621413966 -0.708373632698 -7.55905535638e-16 -4.38356686071e-16
1.3325 -5.58522473074e-16 5.39038843648e-16 0.699594115127 -0.712343452482 0.699594115127 -0.712343452482 3.25510824722e-16 -3.01780812933e-16
1.342 -6.54680793152e-16 2.91332353037e-16 0.695544433173 -0.716290390914 0.695544433173 -0.716290390914 4.20714695849e-16 -2.09504880611e-16
1.3515 6.74661253476e-17 6.4773733053e-17 0.691472497875 -0.72021432172 0.691472497875 -0.72021432172 -5.31270321629e-16 2.58256659462e-16
1.361 -1.32677803054e-16 -2.02364430112e-16 0.68737843972 -0.724115119364 0.68737843972 -0.724115119364 5.22848752542e-17 1.26050093071e-16
1.3705 -1.629524115e-16 -7.69301489026e-17 0.683262389907 -0.727992659049 0.683262389907 -0.727992659049 -3.66048833699e-18 -2.31465363421e-16
1.38 -2.49433397647e-16 1.46579824007e-16 0.679124480341 -0.731846816725 0.679124480341 -0.731846816725 1.74035434181e-16 -6.53285053644e-17
1.3895 -4.43074235885e-17 1.09777663121e-16 0.674964843634 -0.735677469087 0.674964843634 -0.735677469087 -2.38882719665e-17 1.28511700876e-16
1.399 -6.42095322905e-17 9.14082637608e-17 0.670783613092 -0.739484493587 0.670783613092 -0.739484493587 4.99225097822e-18 3.03833431938e-16
1.4085 -1.74453029271e-16 -2.30898355845e-16 0.666580922721 -0.743267768429 0.666580922721 -0.743267768429 -2.38143465715e-16 -1.39128388245e-16
1.418 1.50806124911e-16 5.96441963737e-17 0.662356907212 -0.747027172581 0.662356907212 -0.747027172581 9.80039051954e-17 1.60964970298e-16
1.4275 2.24139472389e-16 4.90790601499e-17 0.658111701947 -0.750762585773 0.658111701947 -0.750762585773 -5.74366906386e-17 9.70510927055e-17
1.437 -7.25914265349e-17 8.37634282498e-17 0.653845442985 -0.754473888506 0.653845442985 -0.754473888506 -7.25914265349e-17 8.37634282498e-17
1.4465 9.1296111213e-17 5.23937912349e-18 0.649558267065 -0.758160962051 0.649558267065 -0.758160962051 -1.91806568198e-17 -8.94121547675e-17
1.456 1.98233015537e-17 1.67899629511e-17 0.645250311598 -0.761823688454 0.645250311598 -0.761823688454 -1.98233015537e-17 -1.67899629511e-17
1.4655 1.05681089665e-16 -5.6075977635e-17 0.640921714661 -0.765461950544 0.640921714661 -0.765461950544 -1.90664437862e-16 -1.50806268249e-17
1.475 -9.47588032339e-17 -2.2231495239e-16 0.636572614998 -0.769075631931 0.636572614998 -0.769075631931 -9.07210816388e-17 -7.50908672392e-17
1.4845 -1.7230094685e-16 7.38396247493e-17 0.632203152009 -0.772664617013 0.632203152009 -0.772664617013 1.63292924774e-17 -5.82452694973e-17
1.494 1.9595736984e-16 -1.26615939406e-16 0.627813465751 -0.776228790979 0.627813465751 -0.776228790979 9.35486763979e-18 5.77778540569e-16
1.5035 3.19796807316e-16 3.26621274939e-16 0.623403696929 -0.779768039813 0.623403696929 -0.779768039813 4.59347981185e-16 2.96284149232e-16
1.513 1.37627094796e-16 3.81240022096e-17 0.618973986896 -0.783282250298 0.618973986896 -0.783282250298 3.33665663167e-16 6.1683901593e-16
1.5225 1.00508181582e-15 1.27727519404e-15 0.614524477644 -0.786771310016 0.614524477644 -0.786771310016 -4.59773977453e-16 -6.47688974871e-15
1.532 2.20362432308e-16 1.70118071317e-16 0.6100553118 -0.790235107359 0.6100553118 -0.790235107359 2.90119305441e-15 1.39390000391e-16
1.5415 -2.7209947322e-15 -4.7285382954e-16 0.605566632626 -0.793673531524 0.605566632626 -0.793673531524 3.32718797069e-16 -2.34081906294e-16
1.551 1.88582070203e-15 1.72712791399e-16 0.601058584009 -0.797086472525 0.601058584009 -0.797086472525 3.91829086596e-16 1.96123575645e-15
1.5605 -2.57970114665e-16 3.60655871099e-16 0.596531310459 -0.800473821189 0.596531310459 -0.800473821189 -3.39782623294e-16 -1.14988476387e-16
1.57 -5.82340658985e-17 1.2647484758e-15 0.591984957102 -0.803835469164 0.591984957102 -0.803835469164 5.09289250757e-16 -3.81985553766e-16
1.5795 3.62443726111e-16 5.37919797714e-16 0.587419669679 -0.807171308921 0.587419669679 -0.807171308921 -6.12290269215e-17 3.66667077954e-16
1.589 4.99099316278e-16 4.27170892783e-16 0.582835594539 -0.81048123376 0.582835594539 -0.81048123376 -1.28059866207e-16 3.85709325555e-16
1.5985 -2.23781382106e-16 -2.94973205689e-16 0.578232878634 -0.813765137808 0.578232878634 -0.813765137808 3.37923617589e-16 -4.39693506526e-16
1.608 -6.39772124215e-16 -2.4604048166e-16 0.573611669514 -0.817022916027 0.573611669514 -0.817022916027 -6.39772124215e-16 -2.4604048166e-16
1.6175 -1.14953871158e-16 1.9002915273e-16 0.568972115324 -0.820254464218 0.568972115324 -0.820254464218 -4.66539667407e-17 2.3740559844e-16
1.627 -1.69887799208e-16 -4.92449547405e-17 0.564314364799 -0.823459679019 0.564314364799 -0.823459679019 -1.67030849534e-16 -4.72870959876e-17
1.6365 1.4602072692e-16 -3.49824425017e-17 0.559638567256 -0.826638457913 0.559638567256 -0.826638457913 2.21080492686e-16 2.83511891636e-16
1.646 -1.27255476241e-16 3.14882857906e-16 0.554944872594 -0.829790699232 0.554944872594 -0.829790699232 -8.80923127397e-17 -1.9224356742e-16
1.6555 1.08567582212e-16 5.30701111601e-18 0.550233431285 -0.832916302155 0.550233431285 -0.832916302155 -3.23216232702e-16 1.18549377699e-16
1.665 2.39118316514e-16 8.98589318485e-17 0.545504394371 -0.836015166717 0.545504394371 -0.836015166717 1.32146998296e-16 1.52393683618e-16
1.6745 3.67468405714e-17 -1.0816643938e-16 0.540757913462 -0.839087193809 0.540757913462 -0.839087193809 -9.8318555403e-18 -1.38184533694e-16
1.684 2.27895196617e-16 1.45049052548e-16 0.535994140722 -0.842132285182 0.535994140722 -0.842132285182 8.65793608889e-17 1.86475627169e-16
1.6935 9.96949456227e-17 6.2662548004e-17 0.531213228877 -0.845150343449 0.531213228877 -0.845150343449 8.79661284906e-17 5.52904835329e-17
1.703 4.72851888728e-17 9.45669201439e-17 0.526415331198 -0.848141272091 0.526415331198 -0.848141272091 1.05321250089e-16 -1.30285674864e-16
1.7125 1.71431956208e-17 -5.44844794744e-17 0.521600601504 -0.851104975457 0.521600601504 -0.851104975457 -1.71431956208e-17 5.44844794744e-17
1.722 1.1461493737e-16 4.5853768356e-18 0.516769194153 -0.85404135877 0.516769194153 -0.85404135877 -1.97972993212e-17 5.2787528941e-17
1.7315 7.58151644493e-17 4.52901335637e-17 0.51192126404 -0.856950328126 0.51192126404 -0.856950328126 -3.75092433379e-17 1.06685142374e-16
1.741 -2.96629986583e-16 -1.10598399692e-16 0.507056966589 -0.859831790502 0.507056966589 -0.859831790502 -4.60461606637e-17 3.71750090728e-17
1.7505 -3.72252235422e-16 -3.44922612618e-16 0.502176457749 -0.862685653754 0.502176457749 -0.862685653754 -4.89743892809e-16 -1.56852466617e-16
1.76 8.58165855675e-17 -1.42411387488e-16 0.497279893991 -0.865511826626 0.497279893991 -0.865511826626 1.19643023635e-16 4.52175537586e-16
1.7695 -4.55552622967e-16 -6.72193936115e-17 0.492367432299 -0.868310218745 0.492367432299 -0.868310218745 3.17412789485e-16 -1.38509938108e-16
1.779 -2.1995442826e-16 -5.04057954116e-16 0.48743923017 -0.871080740631 0.48743923017 -0.871080740631 6.18315847914e-16 4.72989052137e-16
1.7885 7.04866436432e-17 3.89203222091e-17 0.482495445603 -0.873823303697 0.482495445603 -0.873823303697 -3.11541542487e-16 3.97642115839e-16
1.798 3.68071940742e-16 7.36870293319e-16 0.477536237101 -0.876537820251 0.477536237101 -0.876537820251 -2.25053285831e-15 2.02353559902e-15
1.8075 -6.55038167811e-15 -2.57708105162e-15 0.472561763657 -0.879224203502 0.472561763657 -0.879224203502 3.18334150119e-15 1.5851570253e-15
1.817 -3.2599512414e-16 1.05011697621e-15 0.467572184758 -0.881882367557 0.467572184758 -0.881882367557 3.29606004337e-16 -2.2398034828e-15
1.8265 -9.18659950347e-16 1.76126453835e-16 0.462567660374 -0.88451222743 0.462567660374 -0.88451222743 -1.52871726485e-15 -5.18083934181e-16
1.836 -2.330053056e-18 1.85832661679e-16 0.457548350954 -0.887113699041 0.457548350954 -0.887113699041 2.30921374405e-16 -6.2903498604e-16
1.8455 -3.52630828854e-16 -5.21257418831e-16 0.452514417422 -0.889686699222 0.452514417422 -0.889686699222 -6.98555383555e-16 -1.56749717673e-15
1.855 -4.04542326162e-16 -1.00870212628e-15 0.447466021172 -0.892231145714 0.447466021172 -0.892231145714 -6.56062407328e-17 4.62985988304e-16
1.8645 -6.70110005823e-16 -2.38615901816e-16 0.442403324061 -0.894746957176 0.442403324061 -0.894746957176 2.72762536595e-16 4.21493591987e-17
1.874 2.97857149311e-16 -5.63671008671e-16 0.437326488404 -0.897234053182 0.437326488404 -0.897234053182 -4.2425363967e-16 3.17145535682e-16
1.8835 -7.16052170714e-16 3.62897776848e-16 0.432235676971 -0.89969235423 0.432235676971 -0.89969235423 7.67950287325e-16 -2.15024060109e-16
1.893 2.22029251823e-16 -4.81353030856e-17 0.42713105298 -0.902121781737 0.42713105298 -0.902121781737 -1.79921670268e-16 -2.997526818e-16
1.9025 -3.93663682614e-16 -5.19942028992e-16 0.422012780092 -0.904522258049 0.422012780092 -0.904522258049 -2.45728560323e-16 -2.06358118133e-16
1.912 4.01550414281e-16 -3.94729264325e-16 0.416881022405 -0.906893706436 0.416881022405 -0.906893706436 -1.53896468567e-16 3.86610018868e-16
1.9215 -4.45216557149e-17 1.31895833914e-16 0.41173594445 -0.909236051101 0.41173594445 -0.909236051101 2.00700742906e-16 6.04733910801e-17
1.931 6.95765763683e-17 3.10331956178e-17 0.406577711186 -0.911549217181 0.406577711186 -0.911549217181 2.56599899143e-16 5.37832388101e-17
1.9405 -5.53500715712e-17 -1.15086332137e-16 0.401406487993 -0.913833130744 0.401406487993 -0.913833130744 -1.69844181172e-16 7.66841162167e-17
1.95 2.4217573649e-17 1.01023735152e-16 0.396222440668 -0.916087718799 0.396222440668 -0.916087718799 5.54938303245e-17 -6.18112360267e-18
1.9595 -7.83559175075e-17 -6.34743086775e-17 0.391025735419 -0.918312909294 0.391025735419 -0.918312909294 -1.89100732928e-18 -3.09148755763e-17
1.969 -1.831659768e-16 -4.67335338812e-17 0.38581653886 -0.92050863112 0.38581653886 -0.92050863112 -1.44842106426e-16 -3.06706937041e-17
1.9785 5.76210837862e-17 2.37681760526e-17 0.380595018005 -0.922674814109 0.380595018005 -0.922674814109 1.47253880787e-16 6.07408943567e-17
1.988 4.65816374878e-17 1.982901074e-16 0.375361340264 -0.924811389045 0.375361340264 -0.924811389045 1.37931001897e-16 -6.36058020196e-17
1.9975 1.8437725096e-16 -1.58658346779e-17 0.370115673437 -0.926918287658 0.370115673437 -0.926918287658 2.14399540203e-17 9.80480231627e-17
2.007 2.18652481282e-17 -5.09366784487e-17 0.364858185707 -0.928995442628 0.364858185707 -0.928995442628 1.01527662814e-16 3.98744677893e-17
2.0165 2.68976866395e-16 1.47956732803e-17 0.359589045638 -0.931042787591 0.359589045638 -0.931042787591 -1.45649150532e-16 -2.65565264781e-17
2.026 -6.08947332007e-17 -1.71282767966e-16 0.354308422165 -0.933060257138 0.354308422165 -0.933060257138 -8.20319016937e-17 2.35537129239e-16
2.0355 1.42514629269e-16 -9.4648016575e-17 0.349016484594 -0.935047786816 0.349016484594 -0.935047786816 -1.93697925933e-16 5.48641263111e-16
2.045 2.59645803515e-16 3.62304172138e-17 0.343713402592 -0.937005313133 0.343713402592 -0.937005313133 -7.24909744382e-17 7.4057991986e-16
2.0545 -1.5712424498e-16 -1.15520402517e-16 0.338399346183 -0.938932773559 0.338399346183 -0.938932773559 1.82525680932e-16 -9.3537152658e-16
2.064 1.32221163912e-16 2.23125781891e-16 0.333074485743 -0.940830106525 0.333074485743 -0.940830106525 -2.73652984863e-16 -1.55651353537e-16
2.0735 3.02699901825e-15 -4.57853603237e-15 0.327738991996 -0.942697251432 0.327738991996 -0.942697251432 -5.24941324535e-16 7.55982632185e-16
2.083 2.64475278948e-15 9.02720015476e-16 0.322393036005 -0.944534148645 0.322393036005 -0.944534148645 -4.91597580294e-15 -1.79502634883e-15
2.0925 -7.53745473851e-16 -2.38515103176e-15 0.317036789167 -0.9463407395 0.317036789167 -0.9463407395 7.40912212445e-16 -7.15852943986e-16
2.102 1.06187258247e-15 -7.88144142916e-16 0.311670423213 -0.948116966305 0.311670423213 -0.948116966305 -8.00899797893e-16 3.49066932197e-16
2.1115 4.36869583497e-16 6.64769922934e-16 0.306294110194 -0.949862772339 0.306294110194 -0.949862772339 1.09052196064e-15 -3.46877168124e-16
2.121 -1.41476946676e-15 -4.18325765566e-16 0.300908022483 -0.951578101859 0.300908022483 -0.951578101859 1.58292628021e-16 -3.85734125191e-16
2.1305 -1.83356507723e-16 3.01623921313e-17 0.295512332764 -0.953262900096 0.295512332764 -0.953262900096 -4.91860667243e-16 -4.714884933e-16
2.14 -6.59754805236e-16 -2.58336912537e-16 0.29010721403 -0.954917113263 0.29010721403 -0.954917113263 -7.56526693471e-17 -3.70389892378e-16
2.1495 1.26447928344e-18 -2.85247908195e-17 0.284692839575 -0.95654068855 0.284692839575 -0.95654068855 3.21755610905e-16 -2.79951423839e-16
2.159 -6.31131550739e-17 2.41279760419e-16 0.279269382991 -0.958133574131 0.279269382991 -0.958133574131 -8.97687352532e-17 -1.12723597126e-16
2.1685 3.2354856588e-17 3.8037663197e-17 0.273837018159 -0.959695719163 0.273837018159 -0.959695719163 1.65539392094e-16 7.60401835164e-17
2.178 -1.78224371155e-16 4.96665764433e-16 0.268395919247 -0.96122707379 0.268395919247 -0.96122707379 7.39316059122e-17 -1.23154014208e-16
2.1875 -7.22469901486e-17 -7.7161347466e-17 0.262946260703 -0.962727589139 0.262946260703 -0.962727589139 -2.7759860991e-16 9.64668831948e-17
2.197 -1.54336901941e-16 -1.25451864879e-17 0.257488217248 -0.96419721733 0.257488217248 -0.96419721733 -7.40513556189e-17 8.89501456405e-18
2.2065 4.40057434779e-16 3.41228397195e-19 0.252021963873 -0.96563591147 0.252021963873 -0.96563591147 1.89195269262e-16 2.2114268492e-16
2.216 1.48554705399e-16 -1.62224444857e-16 0.246547675829 -0.96704362566 0.246547675829 -0.96704362566 1.20916695681e-16 2.24220632652e-18
2.2255 1.34453023026e-16 9.05581453557e-17 0.241065528628 -0.968420314991 0.241065528628 -0.968420314991 1.81404823831e-16 1.66118680225e-17
2.235 2.5243664211e-16 7.5574327326e-17 0.235575698031 -0.969765935552 0.235575698031 -0.969765935552 2.92430132063e-16 2.82800429185e-17
2.2445 1.72000849917e-16 5.49851709308e-17 0.230078360047 -0.971080444424 0.230078360047 -0.971080444424 1.57819867852e-16 -5.30657979713e-18
2.254 -9.3431895024e-17 3.52775177571e-17 0.224573690925 -0.97236379969 0.224573690925 -0.97236379969 -8.28900078894e-18 -8.71987229643e-17
2.2635 1.78691358275e-16 2.60095877125e-17 0.219061867147 -0.973615960426 0.219061867147 -0.973615960426 1.21267145775e-16 1.55045756545e-16
2.273 -4.63469447136e-16 2.95451636946e-16 0.213543065426 -0.974836886713 0.213543065426 -0.974836886713 -1.07308784803e-16 -2.78706056328e-16
2.2825 2.93691697667e-16 -1.0733059582e-16 0.208017462697 -0.97602653963 0.208017462697 -0.97602653963 2.36564581974e-16 2.76983840973e-16
2.292 4.26505262921e-16 -1.06267367876e-17 0.202485236114 -0.97718488126 0.202485236114 -0.97718488126 1.3280159717e-16 4.16616358412e-17
2.3015 -1.35196135978e-16 5.75454797911e-17 0.196946563043 -0.978311874689 0.196946563043 -0.978311874689 -4.40674239631e-16 -3.95112896513e-18
2.311 -4.44898175471e-16 -3.40944543089e-16 0.191401621055 -0.979407484008 0.191401621055 -0.979407484008 9.49532744349e-17 -1.78999147263e-16
2.3205 1.79467307043e-16 1.99227574532e-17 0.185850587922 -0.980471674314 0.185850587922 -0.980471674314 2.97744736263e-16 4.37021267513e-16
2.33 -3.05729754288e-16 1.07029770067e-15 0.180293641613 -0.981504411711 0.180293641613 -0.981504411711 -3.492060277e-16 -5.71051938564e-16
