# ghz S RI R 50.0
1 -0 -0 -0.509865512921 0.758580929453 -0.508948167988 0.75721609823 -0 -0
1.0095 -4.13334478328e-17 -1.6201203852e-17 -0.333548505741 0.850968229751 -0.332948388605 0.849437176221 -5.90477826184e-18 -2.31445769314e-18
1.019 1.20633982055e-16 -3.24637558681e-17 -0.141412750028 0.902993722886 -0.141158321622 0.901369065609 1.29997123505e-16 7.17136786322e-17
1.0285 -1.34116881551e-16 -1.06204455497e-17 0.0574287136932 0.912190165133 0.0573253885258 0.91054896171 -1.18269765988e-16 3.9219297156e-17
1.038 5.57828298384e-17 1.0298205771e-17 0.253544864525 0.878121694434 0.253088689141 0.876541786662 5.57828298384e-17 1.0298205771e-17
1.0475 5.21325658998e-17 2.93589169736e-17 0.437634012466 0.802404487961 0.436846625727 0.80096080983 6.12457957098e-17 -3.34036557937e-17
1.057 6.68085755078e-17 9.0364239213e-18 0.600964972251 0.688630092339 0.599883722083 0.687391115963 9.64472288866e-18 -7.575693884e-17
1.0665 -1.07467430261e-17 -7.09424873753e-17 0.735791175191 0.54219506364 0.734467347067 0.541219551704 7.09424873753e-17 -1.07467430261e-17
1.076 2.32823457961e-17 7.27322555392e-17 0.835718078082 0.370044997934 0.834214462474 0.369379216674 -1.79739208623e-17 4.05927135417e-17
1.0855 5.09897446609e-17 3.79387011007e-18 0.896006443531 0.180345093497 0.894394357698 0.180020618409 -1.25139546987e-18 6.21729364888e-18
1.095 -9.47449507365e-19 -4.83481514989e-17 0.913797107722 -0.0179071296979 0.912153013104 -0.0178749113692 -9.7851342564e-19 -4.99333367939e-17
1.1045 -5.30425985458e-17 -3.45659448622e-18 0.888246575585 -0.21530858431 0.886648451229 -0.214921203258 7.47001711563e-19 3.08172437425e-18
1.114 6.09114662687e-17 8.97300115129e-18 0.820567012787 -0.402496602726 0.819090656823 -0.401772434863 -3.85684164847e-17 3.65776183909e-17
1.1235 -5.54299804258e-17 -6.93581465747e-17 0.713968738444 -0.570593003865 0.712684173029 -0.569566398638 -7.12671176903e-17 -8.91747598818e-17
1.133 4.93789160836e-17 3.97951079577e-17 0.573507946782 -0.711625177838 0.572476097019 -0.710344828934 2.96273496502e-17 2.38770647746e-17
1.1425 -7.39698283748e-17 -6.49710846296e-17 0.405846880915 -0.818904216789 0.405116685265 -0.817430852511 -8.53344073303e-17 -7.06033415254e-17
1.152 5.24566124681e-17 5.2134902561e-17 0.218937834184 -0.887342157676 0.218543923422 -0.885745660539 9.83539144637e-17 -2.79887750673e-17
1.1615 1.27551411456e-17 -2.86961226198e-18 0.0216459672675 -0.91369329075 0.0216070220596 -0.912049382918 -1.26049420753e-17 -3.47040854325e-18
1.171 -1.97997395685e-17 -3.48811687651e-17 -0.176671168921 -0.896708089123 -0.17635330392 -0.895094740896 1.48961295804e-17 9.99251959236e-18
1.1805 2.00398404547e-16 -1.4313982777e-16 -0.366607461219 -0.83719245924 -0.365947864741 -0.835686190939 2.17863250384e-16 -4.001739223e-17
1.19 -8.19310733361e-17 5.98581586948e-17 -0.539154362386 -0.737969502693 -0.538184321249 -0.736641755343 -8.19310733361e-17 5.98581586948e-17
1.1995 -4.18932668879e-18 4.7609705053e-18 -0.686128159794 -0.603745603666 -0.68489368487 -0.602659350613 4.18932668879e-18 -4.7609705053e-18
1.209 -1.07074431219e-17 1.94424574962e-17 -0.800558119634 -0.440887194092 -0.799117763471 -0.440093954261 -1.37667125853e-17 2.49974453522e-17
1.2185 6.8309548398e-17 -5.2667854738e-17 -0.877017097407 -0.257118785046 -0.875439177016 -0.256656179499 2.31935596117e-17 -7.91118716807e-17
1.228 9.93292830512e-17 3.52631854215e-17 -0.911878934407 -0.061156587146 -0.910238290947 -0.061046554826 -1.03360694214e-16 2.48474107796e-17
1.2375 -7.40527773466e-18 -4.8586487971e-17 -0.903490432502 0.137704902385 -0.901864881551 0.137457145102 -7.8830375885e-18 -5.17211000982e-17
1.247 1.22462507192e-16 -1.05227858299e-16 -0.852249751114 0.330033737713 -0.850716391885 0.329439944312 -1.11794247822e-16 -7.71142406844e-18
1.2565 -8.789980523e-18 -1.31940900689e-17 -0.760587508706 0.506707878502 -0.759219067266 0.505796214754 8.789980523e-18 1.31940900689e-17
1.266 9.15028944727e-17 8.78257863337e-17 -0.63285148577 0.659347842321 -0.631712865705 0.658161550276 1.28104052262e-16 1.22956100867e-16
1.2755 -1.29301928549e-16 -1.92984135031e-17 -0.475100398472 0.780714134924 -0.474245602586 0.77930948186 -1.30728113925e-16 -1.38941806914e-16
1.285 -6.16668224513e-17 -7.46140627876e-17 -0.294816524754 0.865050608742 -0.294286093811 0.863494218337 -8.23930430424e-17 2.55172487143e-17
1.2945 -5.62887788065e-18 -6.44253835886e-17 -0.100550813473 0.908357464578 -0.100369903455 0.906723156911 5.62887788065e-18 6.44253835886e-17
1.304 -2.59015481657e-17 -3.5711030377e-18 0.0984826906877 0.908580948667 0.0983055016154 0.90694623891 -2.31681043975e-17 2.16470841859e-17
1.3135 8.12805017571e-18 2.40283001381e-17 0.292843869941 0.865710748386 0.292316988178 0.864153170264 -8.12805017571e-18 -2.40283001381e-17
1.323 -4.96714637691e-17 8.93774193766e-17 0.473314275769 0.781780467803 0.472462693458 0.780373896203 -9.76444510001e-17 5.91169957698e-17
1.3325 5.33861807673e-17 1.91571194361e-17 0.631334354666 0.660771161149 0.630198464209 0.659582308284 -5.33861807673e-17 -1.91571194361e-17
1.342 2.82231182985e-17 -4.21556911537e-17 0.759409419885 0.50842250021 0.758043098051 0.507507751532 2.82231182985e-17 -4.21556911537e-17
1.3515 1.84275113219e-17 -4.72658087313e-17 0.851465114358 0.331960532492 0.849933166839 0.331363272421 6.56933200532e-17 -2.88382974093e-17
1.361 4.6982421291e-17 2.81249325042e-17 0.903135505671 0.139754943005 0.901510593301 0.139503497309 -4.60628742976e-18 2.97671169099e-17
1.3705 1.43477406214e-18 2.21482243834e-17 0.911970149305 -0.0590779239462 0.910329341732 -0.0589716315362 1.22980633898e-18 1.89841923287e-17
1.38 4.69436638451e-17 -2.02505368917e-17 0.877550299766 -0.255107454127 0.875971420042 -0.254648467346 1.77016355828e-18 6.08922842542e-18
1.3895 3.6876612373e-17 -3.8275357473e-17 0.801508758351 -0.439036055627 0.800066691808 -0.438246146346 -3.6876612373e-17 3.8275357473e-17
1.399 -7.57649539328e-17 -9.50594213619e-18 0.687452416785 -0.602140139033 0.686215559271 -0.601056774517 8.91396929217e-18 -6.68166080087e-17
1.4085 3.0670627291e-17 2.25149553623e-17 0.540791171092 -0.736683870074 0.539818185025 -0.735358435822 5.11177121516e-17 3.75249256038e-17
1.418 7.26809251936e-17 -2.34115274314e-17 0.368481320829 -0.836286070797 0.367818352921 -0.834781433261 8.70435047786e-17 3.8352791862e-17
1.4275 -3.23148814557e-17 3.23529724335e-17 0.178695624684 -0.896222867632 0.178374117303 -0.894610392411 3.23148814557e-17 -3.23529724335e-17
1.437 6.38385276659e-17 1.92465817609e-17 -0.0195643379588 -0.91365173227 -0.0195291379976 -0.91200789921 8.81114184841e-17 -3.20142971834e-17
1.4465 2.46399092712e-17 -6.02004872681e-18 -0.216895113623 -0.887746289698 -0.216504878103 -0.886149065451 6.78996790868e-17 -4.27000554516e-17
1.456 4.53398604627e-17 5.93495894216e-18 -0.403937379358 -0.81973550008 -0.403210619265 -0.818260640166 4.56690621665e-17 -5.07810168492e-17
1.4655 -1.19569450515e-17 -5.54420555254e-17 -0.571819851459 -0.712845356691 -0.5707910389 -0.711562812453 1.19569450515e-17 5.54420555254e-17
1.475 -1.20797901492e-16 -1.1603519474e-17 -0.712580043885 -0.572145865758 -0.711297976996 -0.571116466638 5.72769501306e-17 9.0715796635e-17
1.4845 3.22628834396e-17 -6.53972159884e-17 -0.819541920157 -0.404310566502 -0.818067408529 -0.403583134973 3.50683515648e-17 -7.10839304222e-17
1.494 -1.33496204869e-16 -9.47000044605e-17 -0.887632527113 -0.217299997752 -0.886035507546 -0.216909033769 1.11363490753e-16 -2.82279513405e-17
1.5035 1.07467483723e-18 -4.91313593741e-17 -0.913622593113 -0.0199841246823 -0.91197881248 -0.019948169445 1.1440086977e-18 -5.2301124495e-17
1.513 -3.73829701856e-17 7.2088333383e-17 -0.896279679687 0.178278365836 -0.89466710225 0.177957609183 6.21240635036e-17 5.22954587286e-17
1.5225 -1.31630727961e-16 7.87099177598e-17 -0.836426623252 0.368083947151 -0.834921732836 0.367421694194 5.92014820623e-17 8.58661432964e-18
1.532 5.77812529021e-17 -6.99010876708e-18 -0.736902495616 0.540430258739 -0.735576668015 0.539457922022 -5.77812529021e-17 6.99010876708e-18
1.5415 -1.4304038833e-17 -1.25405505874e-17 -0.602427935491 0.687143082222 -0.601344053173 0.68590678126 -6.19841682764e-17 -5.43423858786e-17
1.551 -8.55493059074e-17 1.09420712976e-17 -0.439381238876 0.801264036327 -0.438590708545 0.799822410086 -9.23670504795e-17 -1.08504304895e-16
1.5605 8.21548105484e-17 -5.53280265062e-17 -0.255495828787 0.877380602806 -0.255036143247 0.8758020284 1.52540041112e-17 8.36937616877e-17
1.57 6.75379465477e-17 3.61782974699e-17 -0.0594934537029 0.911882830682 -0.0593864136759 0.910242180212 8.34954130833e-17 -1.36157307228e-17
1.5795 7.90682275021e-17 1.34655087342e-17 0.13932948765 0.903134543891 0.139078807429 0.901509633251 2.11998489941e-17 -2.8934189254e-17
1.589 -1.27378594814e-16 2.23755303068e-17 0.33154287443 0.851550932535 0.330946365806 0.850018830612 -1.56244840769e-16 8.8050429546e-17
1.5985 -4.74357333524e-17 3.17265046449e-17 0.508030131543 0.759578848178 0.507116088811 0.75821222151 -3.68944592741e-17 2.46761702794e-17
1.608 -3.94422456175e-17 4.12432977434e-17 0.660420623463 0.631580738367 0.659232401281 0.630444404618 -3.0677302147e-17 3.20781204671e-17
1.6175 3.77942042085e-17 -6.23605102076e-17 0.781486665832 0.473627725885 0.780080622838 0.472775579617 1.14697295573e-16 6.49068961488e-18
1.627 -1.65083923211e-17 -1.09362041761e-16 0.86548632497 0.293211647457 0.863929150629 0.292684103993 3.3570314466e-17 -9.90910434401e-17
1.6365 8.57731509601e-19 -7.87942408159e-18 0.908435746758 0.0988897102598 0.906801298247 0.098711788882 -4.99136752164e-17 -1.02171361104e-17
1.646 5.21048722635e-19 4.72693810596e-18 0.908298098885 -0.100121379546 0.906663898029 -0.0999412421608 8.68414537725e-19 7.87823017661e-18
1.6555 -4.08537878057e-18 -1.20053989734e-17 0.865080165486 -0.294382565661 0.863523721903 -0.293852915493 4.08537878057e-18 1.20053989734e-17
1.665 4.00511288878e-17 -3.17681511957e-17 0.780832013276 -0.47468013389 0.779427148126 -0.47382609414 4.66386390625e-17 -2.09319302019e-17
1.6745 1.16621426927e-17 8.54507361552e-17 0.659549745591 -0.632462713841 0.658363090284 -0.631324793251 5.85553240196e-17 -1.22260048112e-17
1.684 4.22021786053e-17 2.81433741443e-17 0.506985957237 -0.760246863365 0.506073793173 -0.758879034811 4.22021786053e-17 2.81433741443e-17
1.6935 2.6905030429e-17 -1.67696228741e-17 0.330376880739 -0.85197199917 0.329782469959 -0.850439139669 -8.56542943902e-18 -3.05243236166e-17
1.703 9.40172772689e-17 1.43738318979e-17 0.138099165822 -0.903287839733 0.137850699184 -0.901662653284 5.64103663614e-17 8.62429913872e-18
1.7125 -4.51290390491e-17 -9.70355361704e-18 -0.0607274286569 -0.911760727561 -0.0606181684745 -0.910120296778 -5.48384858528e-18 1.30746030931e-17
1.722 2.13722860945e-17 7.30240073016e-17 -0.256672585843 -0.876989045527 -0.256210783093 -0.875411175606 2.731038544e-17 -8.72721980312e-17
1.7315 1.6444917888e-16 -3.62706578055e-18 -0.440442709157 -0.800622253624 -0.43965026904 -0.799181782072 1.0221159912e-16 -1.4306982524e-16
1.741 -9.52408490707e-18 8.37277071834e-18 -0.603321713395 -0.686282643816 -0.602236223001 -0.685047890946 -6.66685943495e-17 5.86093950284e-17
1.7505 -4.11707388409e-17 5.62982205536e-17 -0.73758442213 -0.539393524662 -0.736257367613 -0.538423053226 -1.87139722004e-17 2.55901002517e-17
1.76 1.01841309108e-17 -2.3227613286e-17 -0.836862964317 -0.366921985401 -0.83535728884 -0.366261823034 -8.27263222333e-17 -6.39641369293e-17
1.7695 5.31413354301e-17 -7.2778356552e-18 -0.896448792315 -0.177048440579 -0.894835910612 -0.176729896795 -4.33131726698e-17 -4.24850688261e-17
1.779 -3.68132104556e-19 -1.58469764583e-17 -0.913515997089 0.021221370994 -0.911872408242 0.0211831897155 -5.15384946379e-19 -2.21857670416e-17
1.7885 1.01916206108e-16 -1.04042606981e-17 -0.887255329311 0.218483529891 -0.885658988396 0.218090436509 -4.35674371399e-17 3.52154120034e-17
1.798 5.06322437526e-17 1.02282253951e-16 -0.818912570278 0.405381962839 -0.817439190971 0.404652603665 3.93806340298e-17 7.95528641843e-17
1.8075 5.54143138098e-17 -1.20563271031e-17 -0.711729433281 0.573052197637 -0.710448896802 0.572021167853 -5.54143138098e-17 1.20563271031e-17
1.817 -4.65387713735e-17 2.77275771493e-17 -0.570789799004 0.713541799096 -0.569762839705 0.712258001826 -3.26802820653e-17 -9.10979748568e-17
1.8265 7.43916014754e-17 9.30417978392e-17 -0.40277857848 0.820187545043 -0.40205390329 0.818711871814 1.07726617928e-16 -3.60698750826e-18
1.836 1.47870291561e-16 3.59153775274e-17 -0.215664641133 0.887931453295 -0.215276619467 0.886333895904 9.25942981191e-17 4.85886336117e-17
1.8455 -1.33979308941e-16 4.01189827425e-17 -0.0183228469246 0.913560670929 -0.0182898806416 0.911917001705 -1.1977542431e-16 -3.56959435201e-17
1.855 1.49289849728e-17 9.93612079062e-18 0.179886890163 0.895859848405 0.179563239469 0.894248026325 -1.49289849728e-17 -9.93612079062e-18
1.8645 -9.27778711634e-17 4.10297953651e-17 0.369563542234 0.835668771999 0.368898627205 0.834165245101 -9.27778711634e-17 4.10297953651e-17
1.874 1.03247875584e-16 -2.01978903805e-16 0.541710855127 0.735842521571 0.540736214373 0.734518601065 2.23531848394e-16 -3.85890418156e-17
1.8835 3.33686436222e-17 -3.82007778358e-17 0.688164035306 0.601116043931 0.686925897455 0.600034521956 3.33686436222e-17 -3.82007778358e-17
1.893 -5.51530659173e-17 -4.83028221307e-18 0.801976998524 0.437879565554 0.800534089528 0.437091737018 3.08458671328e-17 4.93489486621e-17
1.9025 6.01755120677e-17 -2.54961524758e-17 0.8777518134 0.25387549723 0.876172571115 0.253418726974 1.67353438307e-17 -5.78609537179e-17
1.912 1.80578073687e-18 -2.84739330506e-17 0.911894714856 0.0578312067817 0.910254043004 0.0577271574527 1.40449612867e-18 -2.21463923727e-17
1.9215 -2.93421375422e-18 -1.8793020165e-17 0.902786545199 -0.140954922348 0.901162260674 -0.140701317661 -4.89035625703e-18 -3.1321700275e-17
1.931 5.76318272594e-17 8.07986886198e-18 0.85085953935 -0.3330545133 0.849328681375 -0.33245528495 -3.91435878034e-17 3.91523237034e-17
1.9405 3.53436988791e-18 5.26368402237e-18 0.758576812856 -0.509356381126 0.75721198904 -0.508439952219 -3.53436988791e-18 -5.26368402237e-18
1.95 4.59006909821e-17 4.37369256141e-17 0.630315526074 -0.66149867137 0.629181468683 -0.660308509575 2.75404145893e-17 2.62421553685e-17
1.9595 -8.59187314799e-17 7.3855624018e-18 0.472159266548 -0.782265455826 0.471309762317 -0.78085801164 -9.30180562763e-19 -5.98057713029e-17
1.969 8.41202500276e-17 2.83282630821e-17 0.291609497282 -0.865928975265 0.29108483639 -0.864371004512 6.00858928768e-17 2.02344736301e-17
1.9785 -9.02818613596e-17 9.46706108834e-18 0.0972297572645 -0.908521296992 0.0970548224575 -0.906886694559 -6.23666619227e-17 -1.30508025889e-17
1.988 1.06459592027e-16 3.91076883683e-17 -0.101760509967 -0.908022502985 -0.101577423475 -0.906388797978 9.51619059111e-17 -6.17030606008e-17
1.9975 -2.39934872912e-17 8.21351972221e-18 -0.295923234883 -0.864456483393 -0.295390812758 -0.862901161932 -7.19804618737e-17 2.46405591666e-17
2.007 -4.26607660129e-17 -3.33828120478e-17 -0.476049367519 -0.779889792416 -0.475192864258 -0.7784866225 4.26607660129e-17 3.33828120478e-17
2.0165 1.05094471134e-17 -8.05093877266e-17 -0.633595658306 -0.658333621378 -0.632455699334 -0.657149154109 6.25802673204e-17 1.01661389111e-17
2.026 1.05239471069e-17 -1.58433653256e-17 -0.761089857885 -0.505553538871 -0.759720512624 -0.504643951999 -1.05239471069e-17 1.58433653256e-17
2.0355 3.59150267069e-17 4.78283646539e-17 -0.852485117598 -0.328796022434 -0.850951334899 -0.328204455918 -5.41668724325e-17 -5.05934368553e-19
2.045 -4.99146770202e-17 -9.14143564398e-18 -0.903446781836 -0.136444752707 -0.90182130942 -0.136199262672 4.99146770202e-17 9.14143564398e-18
2.0545 -1.04990505977e-16 -4.84202941295e-17 -0.911557970152 0.0623770277291 -0.909917904168 0.0622647996046 9.6333954428e-17 -7.80837867134e-17
2.064 1.17462557222e-16 3.97463801356e-17 -0.876434198888 0.258239230557 -0.874857327241 0.257774609115 -7.44570862785e-17 1.0620923394e-16
2.0735 7.19882664145e-17 2.54161757142e-17 -0.799741606328 0.441852189217 -0.798302719227 0.441057213177 -2.29328190195e-17 6.33729787954e-17
2.083 -7.96976235971e-17 -9.03252502808e-17 -0.685117917485 0.604507263889 -0.683885260179 0.603419640465 -5.45299529875e-17 -6.18014870343e-17
2.0925 9.64809322873e-17 7.53619097218e-18 -0.537999897639 0.738489886247 -0.537031933603 0.737161202628 -1.44920847709e-17 5.21937963883e-17
2.102 1.14737941927e-16 2.23904006893e-17 -0.365365478931 0.837445453583 -0.364708117015 0.835938730097 1.17699864182e-16 7.90188910888e-17
2.1115 -7.46636684411e-17 -1.46052163129e-17 -0.175402791319 0.896680718318 -0.175087208371 0.895067419337 -7.46636684411e-17 -1.46052163129e-17
2.121 -8.92067247165e-17 -1.67911814959e-17 0.0228782040016 0.913386378439 0.0228370417658 0.911743022801 -1.13605792828e-16 2.18711632648e-17
2.1305 -1.54953895298e-17 6.9167369127e-17 0.220073058307 0.886770311892 0.219677105061 0.885174843614 -8.29558922519e-17 -4.47343514838e-17
2.14 -1.59070071411e-16 1.35747562362e-16 0.406828887235 0.818095136142 0.406096924769 0.816623227554 -2.0423715118e-16 4.49207567142e-17
2.1495 6.90326710198e-17 -5.57889265714e-17 0.574287974671 0.710618311957 0.57325472149 0.709339774596 8.87562913111e-17 -7.17286198775e-17
2.159 7.53750436094e-17 6.81781715325e-17 0.714507888673 0.569437632775 0.713222353225 0.56841310628 -7.53750436094e-17 -6.81781715325e-17
2.1685 -2.22738177091e-17 4.55656725468e-17 0.82083818361 0.401249428539 0.819361339758 0.40052750458 -2.22738177091e-17 4.55656725468e-17
2.178 -3.14853361587e-17 -8.58415941425e-17 0.888235821885 0.214030952745 0.886637716877 0.213645870395 1.13465366808e-16 -3.78715321251e-17
2.1875 -1.35848765618e-18 7.447984017e-17 0.913504355231 0.0166620173676 0.91186078733 0.0166320392325 -1.30067967081e-18 7.13104852692e-17
2.197 -1.57422840648e-18 -7.76675183952e-18 0.895445521672 -0.181496178299 0.893834445044 -0.18116963219 -5.31705142672e-17 -7.01179224548e-18
2.2065 -2.57464222633e-17 -5.7933940175e-17 0.83491606843 -0.371045048675 0.833413895789 -0.370377468134 -1.08142157638e-16 6.43391151621e-18
2.216 -5.20922196405e-17 1.48464146013e-17 0.734787106147 -0.542994393869 0.733465084533 -0.542017443785 5.20922196405e-17 -1.48464146013e-17
2.2255 8.11181079246e-17 3.36237169641e-18 0.599807922765 -0.68918879978 0.598728754348 -0.687948818183 6.19892760789e-17 -1.32856424587e-17
2.235 -4.59743673761e-18 -3.13632447793e-17 0.436380716787 -0.802694442418 0.435595584965 -0.801250242604 1.67094347196e-17 9.08399848648e-18
2.2445 -2.43729467347e-17 -7.00153642578e-18 0.252256934705 -0.878127950657 0.251803076551 -0.876548031629 -2.43729467347e-17 -7.00153642578e-18
2.254 -7.41780074039e-17 -3.31515243842e-17 0.0561696156051 -0.91191172986 0.0560685557944 -0.910271027395 -1.27917317376e-16 1.43517055352e-17
2.2635 -4.3507882956e-17 -3.1635644849e-17 -0.142580818973 -0.902443636857 -0.142324288989 -0.90081996929 -5.66834874506e-17 4.74652956583e-17
2.273 -5.39677970713e-17 -3.32649017329e-17 -0.334567683825 -0.850172959063 -0.333965732994 -0.848643336377 6.77371736807e-18 5.18371390268e-17
2.2825 2.42188898332e-17 -7.74899874093e-17 -0.510685135295 -0.757579094566 -0.509766315707 -0.756216065835 3.19184598914e-18 -6.33156275208e-17
2.292 -6.42792440089e-19 1.47997753523e-16 -0.662580056827 -0.62905394486 -0.661387949414 -0.627922157293 -1.39035242223e-16 -8.75426574035e-19
2.3015 -1.19596748059e-16 2.07739955074e-18 -0.783048240745 -0.470693598781 -0.781639388181 -0.469846731565 6.73392609676e-17 8.4858419076e-17
2.311 1.24359868581e-16 -5.19661955445e-17 -0.866376075701 -0.290009188458 -0.864817300529 -0.289487406827 -5.99648929051e-17 -1.40407937901e-16
2.3205 5.8893291809e-17 -7.50804418902e-17 -0.908611533914 -0.0955706316975 -0.906976769128 -0.0953986819726 -4.16512754933e-17 -8.88432929859e-17
2.33 1.25559092984e-18 1.1022886146e-17 -0.907751605755 0.103399841714 -0.906118388144 0.103213805753 1.02395004531e-16 2.69259368637e-18
