# ghz S RI R 50.0
1 -1.1192494852e-17 -1.54051475592e-17 -0.740038579278 0.53766950021 -0.738707109267 0.536702130622 1.1192494852e-17 1.54051475592e-17
1.0095 9.47999653023e-18 8.4428078624e-18 -0.608368421489 0.683105741457 -0.607273851109 0.681876704438 -9.47999653023e-18 -8.4428078624e-18
1.019 1.10622677325e-17 6.2271639957e-18 -0.44871445521 0.797120397407 -0.447907132649 0.795686226359 -1.10622677325e-17 -6.2271639957e-18
1.0285 3.64070859846e-17 1.11752467284e-17 -0.268420464009 0.874469007328 -0.267937524594 0.872895671435 1.21356953282e-17 3.72508224279e-18
1.038 -2.5301807315e-17 -2.10330736051e-18 -0.0757796339604 0.911593679965 -0.0756432920008 0.909953549732 -7.5905421945e-17 -6.30992208154e-18
1.0475 1.30463889085e-16 -3.01207584213e-17 0.120346917386 0.906786749876 0.120130390416 0.905155268224 1.19549843966e-16 -1.58664153367e-17
1.057 -7.16318110533e-17 2.58907675157e-17 0.310937735829 0.860269326847 0.310378299764 0.858721538877 -2.38772703511e-17 8.63025583856e-18
1.0665 2.14878427621e-17 -1.35232380992e-17 0.487226000516 0.774181125252 0.486349388368 0.772788226314 6.44635282864e-17 -4.05697142977e-17
1.076 9.05500731625e-18 -8.89708836178e-18 0.641102781293 0.652482041205 0.63994931558 0.651308102041 -9.05500731625e-18 8.89708836178e-18
1.0855 -4.86470590644e-17 7.43631578559e-17 0.765490034308 0.500770004743 0.764112772293 0.499869024359 -6.25462187971e-17 9.56097743861e-17
1.095 5.30991094435e-17 3.27184416571e-18 0.854666178784 0.326023485532 0.853128471942 0.325436907337 1.24423330696e-17 -3.26174086581e-17
1.1045 -5.18663244346e-17 3.41866998406e-18 0.904529279017 0.13628049632 0.902901858983 0.136035301813 -2.12768078655e-18 1.41219735752e-17
1.114 -1.03617011844e-19 -1.58343082698e-18 0.912785725742 -0.0597311405991 0.911143450792 -0.0596236729282 1.03617011844e-19 1.58343082698e-18
1.1235 -4.38876811403e-18 -1.52491862517e-17 0.879055737867 -0.25299525687 0.877474149574 -0.252540070334 -9.65528985087e-18 -3.35482097537e-17
1.133 0 0 0.80489083169 -0.434622064946 0.803442680154 -0.433840097273 1.20631855878e-17 2.23402083413e-17
1.1425 1.24120936793e-17 1.44405831887e-17 0.693702454053 -0.59625707167 0.692454351535 -0.595184291909 -1.24120936793e-17 -1.44405831887e-17
1.152 -3.54803518874e-17 -2.67441307659e-17 0.550605062179 -0.730465369322 0.549614419057 -0.729151123334 -4.56175952838e-17 -3.43853109847e-17
1.1615 1.06076499863e-17 -2.3066926909e-17 0.382180868206 -0.831073627456 0.38149325221 -0.829578368096 1.06076499863e-17 -2.3066926909e-17
1.171 -1.33668319888e-16 -4.23467070006e-17 0.196177069759 -0.893454054542 0.195824109937 -0.891846560941 -1.08869988318e-16 -3.69016995068e-17
1.1805 1.20594168684e-16 3.22600444853e-18 0.00114949335716 -0.914737267712 0.0011474252002 -0.913091481567 8.25105795799e-17 3.17814717384e-18
1.19 -1.2405969016e-16 2.69133267876e-17 -0.193930957587 -0.893944279005 -0.193582038948 -0.892335903397 -7.44358140962e-17 1.61479960726e-17
1.1995 1.15467569808e-17 -5.27482151752e-18 -0.380090947532 -0.832031526975 -0.3794070917 -0.830534544172 -1.15467569808e-17 5.27482151752e-18
1.209 2.03128314811e-17 -1.52313568824e-17 -0.548767465441 -0.731846882312 -0.547780128505 -0.73053015072 -2.03128314811e-17 1.52313568824e-17
1.2185 6.22417379219e-18 -7.20467131018e-18 -0.692201707261 -0.597998651119 -0.690956304872 -0.596922737926 -6.22417379219e-18 7.20467131018e-18
1.228 -1.51491181218e-17 2.78872746557e-17 -0.803795966387 -0.436643601461 -0.802349784722 -0.435857996659 -9.08947087307e-18 1.67323647934e-17
1.2375 3.90223702442e-17 4.76904921483e-17 -0.878417115807 -0.255203763555 -0.876836676517 -0.254744603496 -4.42707959797e-18 1.52381079249e-17
1.247 2.68990690317e-20 -3.95791352099e-19 -0.912632722345 -0.062025030281 -0.910990722677 -0.0619134354668 -2.68990690317e-20 3.95791352099e-19
1.2565 2.20841403078e-18 1.49121251032e-17 -0.904868932152 0.134006738272 -0.903240901018 0.133765634688 1.51102012632e-18 1.02030329654e-17
1.266 5.76018256366e-17 8.73382831918e-18 -0.855482865043 0.323874447732 -0.853943688827 0.323291736064 7.86565650849e-18 2.077636693e-17
1.2755 8.65357332504e-18 1.33009261184e-17 -0.766746187652 0.498844538906 -0.765366665579 0.497947022801 -8.65357332504e-18 -1.33009261184e-17
1.285 2.7097853759e-17 2.67594538619e-17 -0.642740621019 0.650868715155 -0.641584208521 0.649697678672 4.51630895983e-17 4.45990897698e-17
1.2945 -4.29075746582e-17 -2.7154400343e-17 -0.489170189064 0.772954148968 -0.488290078952 0.771563457593 -4.29075746582e-17 -2.7154400343e-17
1.304 -2.38555047644e-17 -8.69023864439e-18 -0.313098844165 0.85948513894 -0.312535519856 0.857938761873 -7.15665142931e-17 -2.60707159332e-17
1.3135 -1.00639654557e-16 -1.3614169633e-17 -0.122625538572 0.906481421523 -0.12240491193 0.904850489214 -1.00639654557e-16 -1.3614169633e-17
1.323 -2.47970859857e-17 8.36646380391e-18 0.0734883122332 0.911781255697 0.0733560927967 0.91014078798 -2.47970859857e-17 8.36646380391e-18
1.3325 -3.643505743e-17 1.10837105431e-17 0.26622183825 0.875140859013 0.265742854581 0.873566314331 -1.21450191433e-17 3.69457018104e-18
1.342 4.4311533394e-17 -2.47973673866e-17 0.446709658089 0.798245621125 0.445905942539 0.796809425586 4.4311533394e-17 -2.47973673866e-17
1.3515 -2.8503556974e-17 2.52568661785e-17 0.60664966992 0.684632579024 0.605558191901 0.683400794934 -4.75059282901e-17 4.20947769642e-17
1.361 -7.487451214e-18 1.02513127517e-17 0.738684932616 0.539527719957 0.737355898072 0.538557007078 7.487451214e-18 -1.02513127517e-17
1.3705 1.02586160621e-17 -2.32242578299e-17 0.836742071269 0.369605595796 0.835236613302 0.368940605104 1.02586160621e-17 -2.32242578299e-17
1.38 1.2676131405e-18 -6.21940444333e-18 0.89631064107 0.182682306151 0.894698007928 0.182353625972 -1.2676131405e-18 6.21940444333e-18
1.3895 8.22520930717e-21 5.94999700111e-19 0.914650599323 -0.0126440275868 0.913004969111 -0.0126212785788 1.37086821786e-20 9.91666166851e-19
1.399 3.23785935135e-18 1.39094726718e-17 0.890918342283 -0.207388759726 0.88931541091 -0.207015627943 2.51833505105e-18 1.08184787448e-17
1.4085 -1.08966723744e-17 -2.29318094886e-17 0.826205509344 -0.39259399716 0.824719008653 -0.391887645966 -1.08966723744e-17 -2.29318094886e-17
1.418 -9.70995238523e-18 -1.25505295336e-17 0.723488769676 -0.559740645682 0.722187075917 -0.55873356591 9.70995238523e-18 1.25505295336e-17
1.4275 0 0 0.587492901013 -0.701140272367 0.586435889661 -0.6998787878 0 0
1.437 -6.74700927707e-17 -3.53445155411e-17 0.424473458722 -0.810288759096 0.42370975032 -0.808830895663 -2.24900309236e-17 -1.17815051804e-17
1.4465 -2.44850106804e-17 -6.71487954036e-18 0.241929031966 -0.88216547981 0.241493755671 -0.8805782965 -7.34550320411e-17 -2.01446386211e-17
1.456 -3.78631659231e-17 -5.17828874103e-18 0.0482563226447 -0.913464239914 0.0481695003516 -0.911820744188 -1.250944014e-17 -3.83890672894e-18
1.4655 2.50562169633e-17 -4.09772458133e-18 -0.14763608718 -0.902745355035 -0.147370461809 -0.90112114462 7.516865089e-17 -1.2293173744e-17
1.475 -4.13107958723e-17 1.63561011516e-17 -0.336737513378 -0.850501873813 -0.336131658611 -0.848971659347 -5.90154226747e-18 2.33658587879e-18
1.4845 -6.32108447735e-17 4.24951444325e-17 -0.51034964435 -0.759136898581 -0.509431428374 -0.757771067065 -2.10702815912e-17 1.41650481442e-17
1.494 1.3173900453e-17 -1.37491403072e-17 -0.660486647085 -0.632853047159 -0.659298306114 -0.631714424285 -1.3173900453e-17 1.37491403072e-17
1.5035 -0 -0 -0.78024250052 -0.477459140303 -0.778838696015 -0.476600100592 -0 -0
1.513 5.83795811054e-17 -1.3320728155e-17 -0.864108659587 -0.300103006821 -0.862553963927 -0.299563064492 6.24714877373e-18 -1.7987874931e-17
1.5225 -4.84324033973e-17 -2.25905308304e-17 -0.90822743797 -0.108942696835 -0.906593364246 -0.108746688224 1.03941999555e-18 -8.66537901995e-18
1.532 -5.0546758693e-17 4.84216962409e-18 -0.910569454458 0.0872287732589 -0.908931167001 0.0870718321223 -0 -0
1.5415 -9.69321439364e-18 -3.02198190317e-17 -0.871026980675 0.27938788308 -0.869459837642 0.278885211195 -5.81592863619e-18 -1.8131891419e-17
1.551 3.18284061127e-18 5.4915717556e-18 -0.791418896391 0.458695673308 -0.789994983426 0.45787039264 -3.18284061127e-18 -5.4915717556e-18
1.5605 1.71225345366e-17 1.87463107385e-17 -0.675407024451 0.616904321268 -0.674191838886 0.615794393182 -1.71225345366e-17 -1.87463107385e-17
1.57 -3.45096040327e-17 3.77861943736e-17 -0.528327693784 0.746736525326 -0.527377131881 0.745393004437 -2.41465529859e-17 4.5118214001e-17
1.5795 9.35052310193e-17 3.9628997668e-17 -0.356946278261 0.842220247151 -0.356304064087 0.840704932905 9.35052310193e-17 3.9628997668e-17
1.589 -4.60120546132e-17 4.25982036761e-18 -0.169146002161 0.898963414288 -0.168841676366 0.897346008303 -5.84876781237e-17 1.91244804108e-18
1.5985 6.98825216911e-17 1.15460812001e-18 0.026434673388 0.914355947276 0.026387112388 0.912710847199 8.25717595082e-17 7.87753331967e-19
1.608 -9.54891602435e-17 3.68328290923e-17 0.220799403449 0.887689818412 0.22040214337 0.886092695768 -4.62124764872e-17 2.45760000157e-17
1.6175 9.10595620801e-17 -4.49648956179e-17 0.405007774299 0.820191619705 0.404279088361 0.818715939144 9.10595620801e-17 -4.49648956179e-17
1.627 -3.96885936301e-17 3.16739160304e-17 0.570586545727 0.714966141933 0.56955995212 0.713679782 -3.96885936301e-17 3.16739160304e-17
1.6365 -4.60313449927e-17 5.66496374015e-17 0.709919404221 0.576853560088 0.708642124329 0.575815690931 -1.80122654319e-17 2.2167249418e-17
1.646 3.96097377416e-17 3.42146377431e-17 0.816597299128 0.412206794379 0.815128085434 0.411465156037 5.10507745923e-17 1.15495096596e-17
1.6555 5.63049799217e-17 -1.49666064891e-17 0.885713246989 0.228599287802 0.884119680572 0.22818799425 5.47187537171e-17 -8.82073623895e-18
1.665 1.49518600351e-20 -3.96422497082e-19 0.914088043591 0.0344766419367 0.912443425524 0.0344146119073 -1.49518600351e-20 3.96422497082e-19
1.6745 -5.5938540229e-19 -3.12394728631e-18 0.90041650141 -0.161231864916 0.898796481045 -0.160941778157 5.5938540229e-19 3.12394728631e-18
1.684 4.93504119109e-17 -1.35368423189e-17 0.845327485792 -0.349524007817 0.843806581033 -0.348895147717 -2.42531000711e-18 -5.86563773797e-18
1.6935 -3.07724606618e-17 -4.43153666594e-17 0.751354988326 -0.521738700686 0.750003157944 -0.520799993633 -2.71521711722e-17 -3.91017941112e-17
1.703 4.18386818969e-17 3.88952350311e-17 0.622821567974 -0.669954390047 0.621700993637 -0.668749014808 3.25411970309e-17 3.02518494686e-17
1.7125 -5.46336192714e-17 -3.23102323681e-17 0.46563952145 -0.787353431656 0.464801747479 -0.785936833235 -3.27801715628e-17 -1.93861394208e-17
1.722 -7.23201240041e-17 -2.39007920656e-17 0.287038928642 -0.868535689376 0.286522491072 -0.866973028649 -2.41067080014e-17 -7.96693068854e-18
1.7315 1.89383286414e-17 1.98247839953e-18 0.0952350824681 -0.909766931331 0.0950637364601 -0.908130087766 3.15638810689e-17 3.30413066588e-18
1.741 -7.57019944711e-17 8.40572604969e-18 -0.100949399214 -0.909150597577 -0.100767772064 -0.907514862913 -2.5233998157e-17 2.80190868323e-18
1.7505 6.01404369577e-17 -2.02955983626e-17 -0.292490397514 -0.866715038313 -0.291964151716 -0.865155653283 3.60842621746e-17 -1.21773590176e-17
1.76 -2.17718124036e-17 1.30611461948e-17 -0.470577385087 -0.784412209824 -0.469730726962 -0.78300090322 2.17718124036e-17 -1.30611461948e-17
1.7695 0 -0 -0.627018693892 -0.666027888144 -0.625890568128 -0.664829577428 0 -0
1.779 -2.15247624079e-17 3.14172986206e-17 -0.754618316591 -0.51700753045 -0.753260614861 -0.516077335671 -3.58746040131e-17 5.23621643677e-17
1.7885 7.093015909e-17 -3.97003453747e-17 -0.847506909412 -0.344205794221 -0.845982083455 -0.343586502598 1.43304449233e-17 -3.52845631634e-17
1.798 1.61923844988e-18 -9.38220096383e-18 -0.901411770978 -0.15557123583 -0.899789959934 -0.155291333618 2.6987307498e-18 -1.56370016064e-17
1.8075 -1.74423445186e-19 -3.96320727352e-18 -0.913853378571 0.0402193081724 -0.912209182711 0.0401469459953 -1.04654067111e-19 -2.37792436411e-18
1.817 -4.82738544459e-17 1.60663734753e-17 -0.884259441532 0.234159839291 -0.882668490788 0.23373854125 -8.12405140699e-19 -3.06789122416e-18
1.8265 1.30311216868e-17 2.54168943881e-17 -0.813991225564 0.417329456162 -0.812526700691 0.416578601178 1.01353168675e-17 1.97686956352e-17
1.836 1.21007932698e-17 1.47024254657e-17 -0.706280937055 0.581302699313 -0.705010203456 0.580256825309 -1.21007932698e-17 -1.47024254657e-17
1.8455 -2.99151164892e-17 -2.35679412501e-17 -0.566083047637 0.718537106525 -0.565064556679 0.717244321749 -4.9858527482e-17 -3.92799020836e-17
1.855 4.56701427774e-17 2.21959338557e-17 -0.399846397766 0.822720151977 -0.399126998126 0.821239922107 4.56701427774e-17 2.21959338557e-17
1.8645 -1.23381806246e-16 -2.98674365978e-17 -0.215217562132 0.889059610615 -0.214830344846 0.887460023454 -7.40290837476e-17 -1.79204619587e-17
1.874 1.27271822487e-17 -1.29929230435e-18 -0.0206891215377 0.914503991531 -0.0206518978771 0.912858625094 -1.2655402439e-17 -1.87353078161e-18
1.8835 3.73818851223e-17 -7.27713638997e-18 0.174790979916 0.897882900837 0.174476497733 0.896267438901 6.23031418704e-17 -1.212856065e-17
1.893 -1.16567988261e-17 5.02696528169e-18 0.362231023511 0.83996087759 0.361579301076 0.838449628379 1.16567988261e-17 -5.02696528169e-18
1.9025 -3.61087242397e-17 2.58894560442e-17 0.533009118141 0.743402226426 0.532050133466 0.742064704574 -4.64255025939e-17 3.32864434853e-17
1.912 -2.76321675227e-17 3.06369765843e-17 0.679269791158 0.612648464534 0.678047655742 0.611546193544 -4.03854756101e-17 4.47771196232e-17
1.9215 0 0 0.794285325411 0.453714020185 0.792856255196 0.452897702457 1.25930937951e-17 -2.20458464098e-17
1.931 -4.84482022078e-17 -1.52050361349e-17 0.87276522164 0.273909580285 0.871194951181 0.273416764907 0 0
1.9405 -1.13112037049e-18 1.2644046248e-17 0.911099551537 0.0815058124646 0.909460310335 0.0813591680219 -1.13112037049e-18 1.2644046248e-17
1.95 3.97761928068e-19 3.14860987175e-18 0.90752500769 -0.114647070146 0.905892197772 -0.114440798284 -3.97761928068e-19 -3.14860987175e-18
1.9595 -7.42005351288e-18 -2.09396461524e-17 0.862206012425 -0.305526402155 0.86065473999 -0.304976702107 -9.54006880228e-18 -2.69224021959e-17
1.969 8.36747497031e-18 1.3482741914e-17 0.777227154685 -0.482352091627 0.77582877536 -0.481484248567 -8.36747497031e-18 -1.3482741914e-17
1.9785 -5.30401129578e-17 -5.46643815913e-17 0.65649730284 -0.636990487873 0.655316139457 -0.635844420957 -1.76800376526e-17 -1.82214605304e-17
1.988 -1.05794333593e-16 -7.01619046281e-17 0.505569804062 -0.762328514157 0.504660187926 -0.760956940318 -6.34766001559e-17 -4.20971427769e-17
1.9975 4.46944793568e-17 -9.86767042473e-18 0.331387040751 -0.85260085591 0.330790812501 -0.851066864976 6.8358906883e-17 -6.69832357121e-19
2.007 9.83557699355e-17 2.83015819936e-17 0.14196109394 -0.903655154405 0.14170567896 -0.902029307088 4.81928319984e-17 2.0421158239e-17
2.0165 -1.01379239169e-16 5.994626732e-18 -0.053994797433 -0.913143007489 -0.0538976505334 -0.911500089721 -1.01379239169e-16 5.994626732e-18
2.026 2.44423368123e-17 -6.86858984149e-18 -0.247467029206 -0.880627991681 -0.247021789001 -0.879043574605 7.3327010437e-17 -2.06057695245e-17
2.0355 -7.14799677422e-19 -2.83768524593e-17 -0.429556240906 -0.807605736838 -0.428783387613 -0.806152700673 -1.12077810482e-17 5.96129036282e-18
2.045 -1.93577134872e-17 1.64281552161e-17 -0.591886669678 -0.697435129983 -0.5908217531 -0.696180311671 1.93577134872e-17 -1.64281552161e-17
2.0545 -5.00807004629e-17 6.55787122934e-17 -0.726991419687 -0.555183812784 -0.725683423995 -0.554184931619 -7.31948699074e-17 9.5845810275e-17
2.064 6.48162978815e-17 -1.87449419963e-17 -0.828655925358 -0.38739507953 -0.827165015904 -0.386698082177 7.01924845931e-17 -3.02448530941e-17
2.0735 4.67269048616e-17 2.35832381557e-17 -0.892203809751 -0.201786897843 -0.890598565579 -0.201423844874 4.67269048616e-17 2.35832381557e-17
2.083 -7.47763028888e-22 9.91732725834e-20 -0.914711989149 -0.00689689661084 -0.913066248485 -0.00688448778342 -2.24328908666e-21 2.9751981775e-19
2.0925 -5.06705358033e-17 5.79483644788e-18 -0.895145129436 0.188310348954 -0.89353459327 0.187971542857 9.799991493e-19 4.65848781132e-18
2.102 -2.55100162402e-17 6.71273559251e-17 -0.834403269528 0.374855670994 -0.83290201951 0.374181234419 -2.55100162402e-17 6.71273559251e-17
2.1115 -1.88792847299e-17 -2.55101641641e-17 -0.73528042127 0.544158333918 -0.733957512089 0.543179289686 -4.15344264059e-17 -5.61223611609e-17
2.121 -2.3887006159e-17 -8.83701338413e-17 -0.602336050118 0.688430732176 -0.60125233312 0.687192114487 1.43285763271e-17 -5.49337662711e-17
2.1305 6.11413882083e-17 3.37128854758e-17 -0.441685348266 0.801036605533 -0.440890672404 0.799595388483 2.77915400947e-17 1.53240388526e-17
2.14 -1.58183908056e-16 -4.70364485454e-17 -0.260717947252 0.876796294619 -0.260248866128 0.875218771493 -1.33847922201e-16 -3.98000718461e-17
2.1495 1.14407149926e-16 2.13314894775e-18 -0.0677580087422 0.912224995562 -0.0676360992105 0.910583729472 8.90878200835e-17 2.52486412538e-19
2.159 2.51380320571e-17 -3.5615585848e-18 0.128318671323 0.905693054443 0.128087801652 0.904063540556 7.54140961714e-17 -1.06846757544e-17
2.1685 -3.57006477849e-17 1.3259932016e-17 0.318492932726 0.857500928326 0.317919903427 0.85595812123 -1.19002159283e-17 4.41997733866e-18
2.178 -1.06840281732e-17 6.85586470179e-18 0.49401711546 0.769865364793 0.493128284806 0.768480230728 1.06840281732e-17 -6.85586470179e-18
2.1875 -4.48819756159e-17 4.48819756159e-17 0.64681743571 0.64681743571 0.645653688247 0.645653688247 -2.69291853695e-17 2.69291853695e-17
2.197 3.42793235089e-17 -5.34201408659e-17 0.769865364793 0.49401711546 0.768480230728 0.493128284806 2.05675941054e-17 -3.20520845196e-17
2.2065 4.41997733866e-18 -1.19002159283e-17 0.857500928326 0.318492932726 0.85595812123 0.317919903427 1.3259932016e-17 -3.57006477849e-17
2.216 5.02760641143e-17 7.12311716959e-18 0.905693054443 0.128318671323 0.904063540556 0.128087801653 0 0
2.2255 -1.76312112676e-19 -2.37368717276e-18 0.912224995562 -0.0677580087422 0.910583729472 -0.0676360992105 1.76312112676e-19 2.37368717276e-18
2.235 -7.688650243e-18 -2.58569849707e-17 0.876796294619 -0.260717947252 0.875218771493 -0.260248866128 -6.78410315559e-18 -2.28149867389e-17
2.2445 2.30128097578e-17 -6.34266182968e-17 0.801036605533 -0.441685348265 0.799595388483 -0.440890672404 2.91424252989e-17 -5.23100022589e-17
2.254 4.17954594627e-18 4.77694781076e-18 0.688430732176 -0.602336050118 0.687192114487 -0.60125233312 -4.17954594627e-18 -4.77694781076e-18
2.2635 1.02040656656e-17 7.55171389197e-18 0.544158333918 -0.73528042127 0.543179289686 -0.733957512089 -1.02040656656e-17 -7.55171389197e-18
2.273 -6.36881933636e-17 -2.86119210334e-17 0.374855670994 -0.834403269528 0.374181234419 -0.83290201951 -2.89491788017e-17 -1.30054186515e-17
2.2825 -9.93810733081e-17 -2.09066485184e-17 0.188310348954 -0.895145129436 0.187971542857 -0.89353459327 -4.9690536654e-17 -1.04533242592e-17
2.292 9.52123237843e-17 7.55336729356e-20 -0.00689689661083 -0.914711989149 -0.00688448778342 -0.913066248485 1.07906502675e-16 -2.01799947619e-20
2.3015 -6.80999833418e-17 1.54019566286e-17 -0.201786897843 -0.892203809751 -0.201423844874 -0.890598565579 -1.30009059107e-16 2.9403735382e-17
2.311 -8.04993776847e-17 3.76333069806e-17 -0.38739507953 -0.828655925358 -0.386698082177 -0.827165015904 -1.0349919988e-16 4.83856804036e-17
2.3205 -9.08012939447e-17 6.93425083333e-17 -0.555183812784 -0.726991419687 -0.554184931619 -0.725683423995 -7.06232286237e-17 5.3933062037e-17
2.33 1.23211164121e-17 -1.45182851154e-17 -0.697435129983 -0.591886669678 -0.696180311671 -0.5908217531 -1.23211164121e-17 1.45182851154e-17
2.3395 3.57677421769e-17 -6.72466862893e-17 -0.807605736838 -0.429556240906 -0.806152700673 -0.428783387613 2.38451614513e-17 -4.48311241929e-17
2.349 -2.57572119056e-18 9.16587630463e-18 -0.880627991681 -0.247467029206 -0.879043574605 -0.247021789001 -8.58573730186e-19 3.05529210154e-18
